time	V(y)	V(square)
0.000000000000000e+00	5.979882e-09	0.000000e+00
9.073045276792868e-04	6.393547e-09	0.000000e+00
1.000000000004775e-03	-1.114480e-06	2.842171e-11
1.000407860217933e-03	-2.402633e-06	1.631441e-03
1.001223580637145e-03	-7.487250e-06	4.894323e-03
1.001691366255386e-03	-9.825437e-06	6.765465e-03
1.002175692427443e-03	-1.145913e-05	8.702770e-03
1.002685465550712e-03	-1.322756e-05	1.074186e-02
1.003328792734237e-03	-1.612860e-05	1.331517e-02
1.004144123754713e-03	-2.100905e-05	1.657650e-02
1.005279032760598e-03	-2.991973e-05	2.111613e-02
1.006941682888396e-03	-4.439510e-05	2.776673e-02
1.009016640935556e-03	-6.063201e-05	3.606656e-02
1.012359521610051e-03	-8.023853e-05	4.943809e-02
1.016780991513144e-03	-9.200663e-05	6.712396e-02
1.023335725236052e-03	-8.829441e-05	9.334290e-02
1.029472458156988e-03	-8.263483e-05	1.178898e-01
1.040329579190313e-03	-8.237074e-05	1.613183e-01
1.050824364710934e-03	-8.379546e-05	2.032975e-01
1.058665968621142e-03	-9.814318e-05	2.346639e-01
1.062563157475438e-03	-8.279398e-05	2.502526e-01
1.065229327004147e-03	-3.614115e-05	2.609173e-01
1.066967329734325e-03	-9.294916e-06	2.678693e-01
1.068457094000053e-03	-8.128321e-07	2.738284e-01
1.070016647496175e-03	-8.053105e-07	2.800666e-01
1.071456705304286e-03	-9.666237e-07	2.858268e-01
1.072996881674726e-03	-7.837445e-09	2.919875e-01
1.074561065379953e-03	-7.473084e-07	2.982443e-01
1.077713701537927e-03	-3.073635e-07	3.108548e-01
1.080866337695901e-03	8.774117e-08	3.234654e-01
1.084018973853875e-03	4.380056e-07	3.360759e-01
1.087171610011848e-03	7.434297e-07	3.486864e-01
1.090324246169822e-03	1.004014e-06	3.612970e-01
1.093476882327796e-03	1.219757e-06	3.739075e-01
1.096629518485770e-03	1.390660e-06	3.865181e-01
1.187169165895341e-03	1.797233e-05	7.486767e-01
1.263676695025140e-03	4.403414e-05	1.054707e+00
1.416691753277632e-03	1.298378e-04	1.666767e+00
1.722721869789723e-03	3.966079e-04	2.890887e+00
1.999999999995339e-03	7.203748e-04	4.000000e+00
2.027727813015190e-03	7.597019e-04	4.000000e+00
2.083183439054892e-03	8.481653e-04	4.000000e+00
2.311995622861218e-03	1.264956e-03	4.000000e+00
2.547797486315062e-03	1.801709e-03	4.000000e+00
3.019401213222750e-03	3.194392e-03	4.000000e+00
3.962608667045231e-03	7.256455e-03	4.000000e+00
5.849023574690193e-03	1.776408e-02	4.000000e+00
5.849453058736742e-03	1.776692e-02	4.000000e+00
5.990691954614087e-03	1.883684e-02	4.000000e+00
6.131930850491431e-03	1.993343e-02	4.000000e+00
6.273169746368775e-03	2.105671e-02	4.000000e+00
6.414408642246120e-03	2.220668e-02	4.000000e+00
6.555647538123465e-03	2.338332e-02	4.000000e+00
6.696886434000809e-03	2.458665e-02	4.000000e+00
6.838125329878153e-03	2.581666e-02	4.000000e+00
6.865612308743607e-03	2.606220e-02	4.000000e+00
6.872484053459971e-03	2.612532e-02	4.000000e+00
6.886227542892698e-03	2.626256e-02	4.000000e+00
6.896987730378612e-03	2.637446e-02	4.000000e+00
6.907642935708225e-03	2.648104e-02	4.000000e+00
6.928953346367450e-03	2.668758e-02	4.000000e+00
6.951853268610364e-03	2.690537e-02	4.000000e+00
6.954211063032290e-03	2.693234e-02	4.000000e+00
6.958926651876141e-03	2.699048e-02	4.000000e+00
6.968357829570948e-03	2.708289e-02	4.000000e+00
6.974295565505884e-03	2.712145e-02	4.000000e+00
6.979212869026696e-03	2.715626e-02	4.000000e+00
6.982679595928687e-03	2.718663e-02	4.000000e+00
6.985033989920453e-03	2.720404e-02	4.000000e+00
6.986882971354191e-03	2.721907e-02	4.000000e+00
6.988563022332528e-03	2.723128e-02	4.000000e+00
6.990280161353724e-03	2.724518e-02	4.000000e+00
6.992073469213267e-03	2.725991e-02	4.000000e+00
6.994019153140130e-03	2.727514e-02	4.000000e+00
6.995986220530881e-03	2.729176e-02	4.000000e+00
6.997963139468766e-03	2.730795e-02	4.000000e+00
6.999854957093987e-03	2.732520e-02	4.000000e+00
7.001725914527412e-03	2.734149e-02	4.000000e+00
7.003615855168732e-03	2.735912e-02	4.000000e+00
7.005578194267059e-03	2.737660e-02	4.000000e+00
7.007697816064251e-03	2.739567e-02	4.000000e+00
7.010127870486826e-03	2.741777e-02	4.000000e+00
7.013081435339075e-03	2.744390e-02	4.000000e+00
7.016946868631635e-03	2.747883e-02	4.000000e+00
7.022405578901214e-03	2.752705e-02	4.000000e+00
7.030019120207953e-03	2.759443e-02	4.000000e+00
7.041078252434829e-03	2.769045e-02	4.000000e+00
7.058943788685212e-03	2.784251e-02	4.000000e+00
7.079871199337617e-03	2.802314e-02	4.000000e+00
7.088729009744554e-03	2.810069e-02	4.000000e+00
7.095189183218054e-03	2.815480e-02	4.000000e+00
7.099134258247375e-03	2.818727e-02	4.000000e+00
7.103922117025263e-03	2.822813e-02	4.000000e+00
7.110989534169221e-03	2.828933e-02	4.000000e+00
7.117893506958239e-03	2.834640e-02	4.000000e+00
7.128525305503786e-03	2.842777e-02	4.000000e+00
7.139392706015713e-03	2.851177e-02	4.000000e+00
7.156700705131414e-03	2.865336e-02	4.000000e+00
7.173717870315954e-03	2.879292e-02	4.000000e+00
7.207481603359156e-03	2.906726e-02	4.000000e+00
7.208002199959651e-03	2.906863e-02	4.000000e+00
7.209043393160641e-03	2.907373e-02	4.000000e+00
7.211125779562622e-03	2.910498e-02	4.000000e+00
7.213116093062411e-03	2.913537e-02	4.000000e+00
7.215063361833529e-03	2.915623e-02	4.000000e+00
7.217126101593863e-03	2.917414e-02	4.000000e+00
7.219870517580773e-03	2.919878e-02	4.000000e+00
7.223314709229101e-03	2.923192e-02	4.000000e+00
7.227467128011256e-03	2.927455e-02	4.000000e+00
7.233202596772514e-03	2.933172e-02	4.000000e+00
7.240058865271237e-03	2.939659e-02	4.000000e+00
7.248149514730073e-03	2.946991e-02	4.000000e+00
7.258930479089543e-03	2.956770e-02	4.000000e+00
7.273591982482230e-03	2.970272e-02	4.000000e+00
7.295027232068207e-03	2.990472e-02	4.000000e+00
7.318105476265657e-03	3.012009e-02	4.000000e+00
7.327578110725597e-03	3.020673e-02	4.000000e+00
7.334594928629201e-03	3.027480e-02	4.000000e+00
7.338729152579049e-03	3.031573e-02	4.000000e+00
7.343792533113458e-03	3.036383e-02	4.000000e+00
7.350578249521789e-03	3.042798e-02	4.000000e+00
7.357212014724723e-03	3.049354e-02	4.000000e+00
7.367361445432152e-03	3.059863e-02	4.000000e+00
7.378027344465465e-03	3.070704e-02	4.000000e+00
7.395584962402779e-03	3.087924e-02	4.000000e+00
7.415282263053768e-03	3.106823e-02	4.000000e+00
7.420206588214739e-03	3.111556e-02	4.000000e+00
7.430055238536681e-03	3.121333e-02	4.000000e+00
7.432517401120720e-03	3.124141e-02	4.000000e+00
7.437441726281691e-03	3.129930e-02	4.000000e+00
7.445919359291508e-03	3.138017e-02	4.000000e+00
7.451395686310036e-03	3.141426e-02	4.000000e+00
7.455966660714353e-03	3.144556e-02	4.000000e+00
7.459121507132238e-03	3.147428e-02	4.000000e+00
7.461276053959409e-03	3.149043e-02	4.000000e+00
7.462987258733733e-03	3.150455e-02	4.000000e+00
7.464563023724224e-03	3.151587e-02	4.000000e+00
7.466174845227158e-03	3.152842e-02	4.000000e+00
7.467983259587641e-03	3.154360e-02	4.000000e+00
7.469998190778426e-03	3.155932e-02	4.000000e+00
7.471839780400558e-03	3.157485e-02	4.000000e+00
7.473786730962217e-03	3.159020e-02	4.000000e+00
7.475584443106698e-03	3.160607e-02	4.000000e+00
7.477389272963819e-03	3.162139e-02	4.000000e+00
7.479210064559538e-03	3.163825e-02	4.000000e+00
7.481073376823133e-03	3.165501e-02	4.000000e+00
7.483124259884733e-03	3.167338e-02	4.000000e+00
7.485515866477499e-03	3.169527e-02	4.000000e+00
7.488522700441536e-03	3.172183e-02	4.000000e+00
7.492684378128445e-03	3.175950e-02	4.000000e+00
7.498539357598588e-03	3.181139e-02	4.000000e+00
7.505708271949629e-03	3.187492e-02	4.000000e+00
7.516379381783622e-03	3.196785e-02	4.000000e+00
7.532523311120087e-03	3.210565e-02	4.000000e+00
7.559113957448460e-03	3.233855e-02	4.000000e+00
7.567617076851718e-03	3.241311e-02	4.000000e+00
7.574708251070206e-03	3.247151e-02	4.000000e+00
7.579108386543965e-03	3.250661e-02	4.000000e+00
7.582699593790210e-03	3.253672e-02	4.000000e+00
7.585499653366412e-03	3.256083e-02	4.000000e+00
7.587974236216155e-03	3.258109e-02	4.000000e+00
7.590238956915130e-03	3.260068e-02	4.000000e+00
7.592539040011559e-03	3.261907e-02	4.000000e+00
7.594927367954085e-03	3.263762e-02	4.000000e+00
7.597874825918893e-03	3.266018e-02	4.000000e+00
7.602094899304745e-03	3.269096e-02	4.000000e+00
7.606063186663903e-03	3.272214e-02	4.000000e+00
7.611133547207771e-03	3.276234e-02	4.000000e+00
7.616458282470262e-03	3.280525e-02	4.000000e+00
7.622443771509779e-03	3.285361e-02	4.000000e+00
7.629201393939411e-03	3.290903e-02	4.000000e+00
7.636602449295538e-03	3.297018e-02	4.000000e+00
7.645034337905088e-03	3.304089e-02	4.000000e+00
7.654458331700198e-03	3.312058e-02	4.000000e+00
7.665345861276762e-03	3.320653e-02	4.000000e+00
7.678423290826686e-03	3.330651e-02	4.000000e+00
7.685760596963576e-03	3.338151e-02	4.000000e+00
7.690893507522389e-03	3.343783e-02	4.000000e+00
7.695838034820213e-03	3.348360e-02	4.000000e+00
7.700050824382743e-03	3.352379e-02	4.000000e+00
7.704085598064125e-03	3.356477e-02	4.000000e+00
7.708292606046996e-03	3.360713e-02	4.000000e+00
7.712505199521047e-03	3.364825e-02	4.000000e+00
7.716927582244182e-03	3.368972e-02	4.000000e+00
7.721969614209456e-03	3.373528e-02	4.000000e+00
7.728213063963096e-03	3.379155e-02	4.000000e+00
7.737114702365488e-03	3.387268e-02	4.000000e+00
7.748688045502661e-03	3.397918e-02	4.000000e+00
7.764495166192376e-03	3.412770e-02	4.000000e+00
7.787636888963334e-03	3.434917e-02	4.000000e+00
7.790314567500900e-03	3.437525e-02	4.000000e+00
7.795669924583137e-03	3.442084e-02	4.000000e+00
7.798678553641025e-03	3.444133e-02	4.000000e+00
7.802043384138813e-03	3.446872e-02	4.000000e+00
7.804520915925650e-03	3.449342e-02	4.000000e+00
7.807361760697518e-03	3.452253e-02	4.000000e+00
7.811394772772928e-03	3.456446e-02	4.000000e+00
7.816525053200962e-03	3.461627e-02	4.000000e+00
7.825058746462332e-03	3.470043e-02	4.000000e+00
7.836101117504768e-03	3.481122e-02	4.000000e+00
7.858185859589639e-03	3.503226e-02	4.000000e+00
7.882817772880912e-03	3.527354e-02	4.000000e+00
7.913203883362030e-03	3.557835e-02	4.000000e+00
7.914121400801832e-03	3.559052e-02	4.000000e+00
7.915956435681437e-03	3.561387e-02	4.000000e+00
7.919626505447752e-03	3.564610e-02	4.000000e+00
7.923381234014926e-03	3.566843e-02	4.000000e+00
7.926676680071409e-03	3.568498e-02	4.000000e+00
7.929426507722326e-03	3.570687e-02	4.000000e+00
7.932239979979272e-03	3.573267e-02	4.000000e+00
7.934989860231667e-03	3.575750e-02	4.000000e+00
7.938253181031030e-03	3.578436e-02	4.000000e+00
7.942011442224839e-03	3.581330e-02	4.000000e+00
7.947134068984951e-03	3.585493e-02	4.000000e+00
7.955019590525580e-03	3.592227e-02	4.000000e+00
7.964460806256568e-03	3.600662e-02	4.000000e+00
7.977219817711045e-03	3.612008e-02	4.000000e+00
7.993510823411043e-03	3.626242e-02	4.000000e+00
8.017229715598262e-03	3.646506e-02	4.000000e+00
8.020917540974892e-03	3.649604e-02	4.000000e+00
8.028293191728153e-03	3.655703e-02	4.000000e+00
8.033636726942461e-03	3.660671e-02	4.000000e+00
8.037058835419941e-03	3.664427e-02	4.000000e+00
8.040936676223964e-03	3.668226e-02	4.000000e+00
8.043519148110079e-03	3.670289e-02	4.000000e+00
8.046534450144804e-03	3.672696e-02	4.000000e+00
8.049447263907439e-03	3.674947e-02	4.000000e+00
8.052876894744543e-03	3.677600e-02	4.000000e+00
8.057118957033538e-03	3.681006e-02	4.000000e+00
8.062284426081590e-03	3.685170e-02	4.000000e+00
8.069811487580125e-03	3.691140e-02	4.000000e+00
8.080880774990362e-03	3.699885e-02	4.000000e+00
8.101297049478262e-03	3.716472e-02	4.000000e+00
8.126347251810273e-03	3.737246e-02	4.000000e+00
8.130966396272754e-03	3.741153e-02	4.000000e+00
8.140204685204822e-03	3.748461e-02	4.000000e+00
8.151247714245358e-03	3.756408e-02	4.000000e+00
8.157865034050360e-03	3.762055e-02	4.000000e+00
8.163648763989784e-03	3.768861e-02	4.000000e+00
8.168350038083361e-03	3.774012e-02	4.000000e+00
8.171444408006323e-03	3.776724e-02	4.000000e+00
8.173487450569894e-03	3.778774e-02	4.000000e+00
8.175059343635382e-03	3.780188e-02	4.000000e+00
8.176486524888560e-03	3.781801e-02	4.000000e+00
8.177957485770548e-03	3.783351e-02	4.000000e+00
8.179701597057942e-03	3.785030e-02	4.000000e+00
8.181320614397691e-03	3.786713e-02	4.000000e+00
8.182957462238960e-03	3.788236e-02	4.000000e+00
8.184482323940756e-03	3.789837e-02	4.000000e+00
8.185959049292535e-03	3.791181e-02	4.000000e+00
8.187442620936736e-03	3.792684e-02	4.000000e+00
8.188992980947774e-03	3.794152e-02	4.000000e+00
8.190764755617863e-03	3.795750e-02	4.000000e+00
8.192971640617941e-03	3.797827e-02	4.000000e+00
8.196102565030117e-03	3.800564e-02	4.000000e+00
8.200084607302927e-03	3.804183e-02	4.000000e+00
8.205048313001839e-03	3.808650e-02	4.000000e+00
8.211468577947301e-03	3.814509e-02	4.000000e+00
8.219503862456179e-03	3.821868e-02	4.000000e+00
8.230814460581826e-03	3.832393e-02	4.000000e+00
8.247544418864550e-03	3.848253e-02	4.000000e+00
8.274534937775968e-03	3.873673e-02	4.000000e+00
8.274807964170350e-03	3.873445e-02	4.000000e+00
8.275354016952008e-03	3.873025e-02	4.000000e+00
8.276446122522430e-03	3.874143e-02	4.000000e+00
8.277456694614216e-03	3.875027e-02	4.000000e+00
8.278533984231728e-03	3.876049e-02	4.000000e+00
8.280688563466754e-03	3.878298e-02	4.000000e+00
8.283278528232074e-03	3.880864e-02	4.000000e+00
8.287181845410885e-03	3.884826e-02	4.000000e+00
8.292406268772368e-03	3.890087e-02	4.000000e+00
8.299582911554637e-03	3.897356e-02	4.000000e+00
8.309652417310076e-03	3.907509e-02	4.000000e+00
8.324203905004879e-03	3.922054e-02	4.000000e+00
8.348645667858534e-03	3.945983e-02	4.000000e+00
8.382044978134218e-03	3.978717e-02	4.000000e+00
8.383974843674480e-03	3.980994e-02	4.000000e+00
8.387834574755004e-03	3.985665e-02	4.000000e+00
8.394614691631830e-03	3.991995e-02	4.000000e+00
8.399635961630736e-03	3.994980e-02	4.000000e+00
8.403784019044735e-03	3.997703e-02	4.000000e+00
8.406638748631678e-03	4.000371e-02	4.000000e+00
8.408617970253829e-03	4.002053e-02	4.000000e+00
8.410236489247325e-03	4.003649e-02	4.000000e+00
8.411926469612752e-03	4.004940e-02	4.000000e+00
8.413453963065365e-03	4.006049e-02	4.000000e+00
8.415484635030168e-03	4.007721e-02	4.000000e+00
8.417381308952088e-03	4.009173e-02	4.000000e+00
8.419318341147175e-03	4.010795e-02	4.000000e+00
8.421242775980886e-03	4.012289e-02	4.000000e+00
8.423056626774894e-03	4.013844e-02	4.000000e+00
8.424892994064237e-03	4.015306e-02	4.000000e+00
8.426726171272492e-03	4.016910e-02	4.000000e+00
8.428650447278585e-03	4.018566e-02	4.000000e+00
8.430809258712202e-03	4.020457e-02	4.000000e+00
8.433405642762182e-03	4.022866e-02	4.000000e+00
8.436746764267866e-03	4.025828e-02	4.000000e+00
8.441487816007509e-03	4.030116e-02	4.000000e+00
8.447925755007191e-03	4.035833e-02	4.000000e+00
8.456484686156784e-03	4.043412e-02	4.000000e+00
8.469578806902689e-03	4.054780e-02	4.000000e+00
8.490464788089014e-03	4.072611e-02	4.000000e+00
8.494296181027039e-03	4.075828e-02	4.000000e+00
8.501958966910195e-03	4.082181e-02	4.000000e+00
8.507858686336078e-03	4.087468e-02	4.000000e+00
8.511675182624856e-03	4.091678e-02	4.000000e+00
8.514992603444682e-03	4.095045e-02	4.000000e+00
8.517609160691109e-03	4.097127e-02	4.000000e+00
8.519752139534376e-03	4.098875e-02	4.000000e+00
8.522007120241426e-03	4.100638e-02	4.000000e+00
8.524285647368401e-03	4.102458e-02	4.000000e+00
8.526790567842113e-03	4.104465e-02	4.000000e+00
8.530157776171166e-03	4.107090e-02	4.000000e+00
8.534446561398568e-03	4.110497e-02	4.000000e+00
8.539133023390377e-03	4.114179e-02	4.000000e+00
8.545022465590080e-03	4.118849e-02	4.000000e+00
8.551695230643475e-03	4.124132e-02	4.000000e+00
8.559649999504870e-03	4.130498e-02	4.000000e+00
8.569069508077121e-03	4.138101e-02	4.000000e+00
8.580816859499407e-03	4.147752e-02	4.000000e+00
8.596252199644994e-03	4.160626e-02	4.000000e+00
8.617679024915503e-03	4.178397e-02	4.000000e+00
8.619690295667226e-03	4.179632e-02	4.000000e+00
8.623712837177777e-03	4.181942e-02	4.000000e+00
8.631757920191774e-03	4.188832e-02	4.000000e+00
8.637109202474846e-03	4.195185e-02	4.000000e+00
8.641562938009884e-03	4.200152e-02	4.000000e+00
8.644429738630777e-03	4.202634e-02	4.000000e+00
8.646336979779790e-03	4.204509e-02	4.000000e+00
8.647821816353485e-03	4.205753e-02	4.000000e+00
8.649187676965653e-03	4.207274e-02	4.000000e+00
8.650594832353420e-03	4.208749e-02	4.000000e+00
8.652097290323013e-03	4.210183e-02	4.000000e+00
8.653608726852724e-03	4.211814e-02	4.000000e+00
8.655053342259578e-03	4.213135e-02	4.000000e+00
8.656420494958184e-03	4.214614e-02	4.000000e+00
8.657770540494880e-03	4.215846e-02	4.000000e+00
8.659150127968473e-03	4.217224e-02	4.000000e+00
8.660678618539919e-03	4.218750e-02	4.000000e+00
8.662544970555075e-03	4.220463e-02	4.000000e+00
8.665150264057786e-03	4.222959e-02	4.000000e+00
8.668565906056358e-03	4.225993e-02	4.000000e+00
8.672663856216900e-03	4.229707e-02	4.000000e+00
8.678062856937174e-03	4.234565e-02	4.000000e+00
8.684695837381184e-03	4.240608e-02	4.000000e+00
8.693180235091802e-03	4.248378e-02	4.000000e+00
8.705189005993930e-03	4.259552e-02	4.000000e+00
8.722968962572963e-03	4.276419e-02	4.000000e+00
8.745545613727757e-03	4.297084e-02	4.000000e+00
8.753027870177732e-03	4.303747e-02	4.000000e+00
8.759720395175918e-03	4.310112e-02	4.000000e+00
8.764076433109835e-03	4.314495e-02	4.000000e+00
8.768059696741659e-03	4.318537e-02	4.000000e+00
8.771497893910407e-03	4.321982e-02	4.000000e+00
8.775008657138983e-03	4.325558e-02	4.000000e+00
8.778349890292247e-03	4.328910e-02	4.000000e+00
8.781793891451173e-03	4.332392e-02	4.000000e+00
8.785570415916766e-03	4.336207e-02	4.000000e+00
8.789962680822327e-03	4.340590e-02	4.000000e+00
8.795775476883705e-03	4.346438e-02	4.000000e+00
8.803575043621947e-03	4.354159e-02	4.000000e+00
8.813024761636257e-03	4.363465e-02	4.000000e+00
8.825926331212486e-03	4.375942e-02	4.000000e+00
8.843868868240179e-03	4.392930e-02	4.000000e+00
8.846563443860589e-03	4.395603e-02	4.000000e+00
8.851952595108514e-03	4.401493e-02	4.000000e+00
8.862730897597260e-03	4.413191e-02	4.000000e+00
8.868875590685832e-03	4.418842e-02	4.000000e+00
8.874370856375435e-03	4.422201e-02	4.000000e+00
8.878874871122377e-03	4.425279e-02	4.000000e+00
8.882020173587080e-03	4.428161e-02	4.000000e+00
8.884168042378349e-03	4.429769e-02	4.000000e+00
8.885880947936187e-03	4.431222e-02	4.000000e+00
8.887456668126958e-03	4.432375e-02	4.000000e+00
8.889068318772786e-03	4.433636e-02	4.000000e+00
8.890873130170007e-03	4.435186e-02	4.000000e+00
8.892920073975574e-03	4.436791e-02	4.000000e+00
8.894778184703966e-03	4.438375e-02	4.000000e+00
8.896767461749278e-03	4.439953e-02	4.000000e+00
8.898602991820326e-03	4.441560e-02	4.000000e+00
8.900451864256809e-03	4.443118e-02	4.000000e+00
8.902320342834003e-03	4.444851e-02	4.000000e+00
8.904226727786124e-03	4.446555e-02	4.000000e+00
8.906315241681284e-03	4.448427e-02	4.000000e+00
8.908726875262118e-03	4.450633e-02	4.000000e+00
8.911716683250859e-03	4.453272e-02	4.000000e+00
8.915767343140146e-03	4.456942e-02	4.000000e+00
8.921752488177503e-03	4.462239e-02	4.000000e+00
8.929068488868097e-03	4.468719e-02	4.000000e+00
8.940132251368027e-03	4.478342e-02	4.000000e+00
8.957256775090627e-03	4.492963e-02	4.000000e+00
8.985945532536732e-03	4.518154e-02	4.000000e+00
8.986210424396290e-03	4.518910e-02	4.000000e+00
8.986740208122512e-03	4.520159e-02	4.000000e+00
8.987637126708137e-03	4.520282e-02	4.000000e+00
8.988326008598335e-03	4.520993e-02	4.000000e+00
8.989111988121579e-03	4.521795e-02	4.000000e+00
8.991504211806500e-03	4.523600e-02	4.000000e+00
8.993145255928425e-03	4.524871e-02	4.000000e+00
8.995155861548199e-03	4.526475e-02	4.000000e+00
8.997900946404513e-03	4.528673e-02	4.000000e+00
9.002008173538911e-03	4.531914e-02	4.000000e+00
9.008268752481285e-03	4.536888e-02	4.000000e+00
9.018906825126294e-03	4.545335e-02	4.000000e+00
9.039910659318195e-03	4.562328e-02	4.000000e+00
9.072138674390828e-03	4.588630e-02	4.000000e+00
9.106705956888561e-03	4.616279e-02	4.000000e+00
9.107195838709004e-03	4.616852e-02	4.000000e+00
9.108175602342783e-03	4.618467e-02	4.000000e+00
9.110135129617447e-03	4.621615e-02	4.000000e+00
9.112402267810182e-03	4.624230e-02	4.000000e+00
9.115422466706491e-03	4.626837e-02	4.000000e+00
9.118229020984359e-03	4.629317e-02	4.000000e+00
9.120896226811226e-03	4.631786e-02	4.000000e+00
9.124179168118474e-03	4.635093e-02	4.000000e+00
