time	V(y)	V(recti)
0.000000000000000e+00	-3.252848e-01	-2.857355e-06
3.610825624278391e-06	-3.253182e-01	-1.085394e-06
1.083247687283517e-05	-3.253849e-01	-9.357329e-09
2.394278226372901e-05	-3.255059e-01	-8.433474e-09
3.705308765462284e-05	-3.256270e-01	-6.258999e-09
5.016339304551667e-05	-3.257480e-01	-2.833904e-09
6.327369843641052e-05	-3.258690e-01	1.841813e-09
7.638400382730434e-05	-3.259901e-01	7.768150e-09
8.949430921819817e-05	-3.261111e-01	1.494511e-08
1.026046146090920e-04	-3.262321e-01	2.337269e-08
9.999996000011890e-04	-3.344874e-01	-1.439982e-10
1.999999599998858e-03	-3.436245e-01	-2.971634e-09
1.136365750024509e-02	-4.243301e-01	-2.992503e-09
2.072731540049132e-02	-4.993024e-01	-2.984300e-09
3.009097330073755e-02	-5.685416e-01	-2.947025e-09
3.945463120098378e-02	-6.320476e-01	-2.880678e-09
4.881828910123001e-02	-6.898204e-01	-2.785259e-09
5.818194700147625e-02	-7.418600e-01	-2.660767e-09
6.754560490172246e-02	-7.881664e-01	-2.507204e-09
8.754560490172203e-02	-8.679003e-01	-2.138904e-09
1.075456049017216e-01	-9.216419e-01	-1.677106e-09
1.275456049017212e-01	-9.507665e-01	-1.132278e-09
1.475456049017208e-01	-9.570354e-01	3.111990e-08
1.675456049017203e-01	-9.450651e-01	1.207465e-05
1.762281872981202e-01	-9.341483e-01	2.494181e-04
1.810753998479946e-01	-9.260220e-01	1.435158e-03
1.836646537485347e-01	-9.211631e-01	4.466174e-03
1.854252842926716e-01	-9.176277e-01	1.072380e-02
1.870867306280690e-01	-9.141000e-01	2.301516e-02
1.887654669881691e-01	-9.102805e-01	4.288574e-02
1.914103909234264e-01	-9.037250e-01	8.297726e-02
1.942174492721840e-01	-8.959939e-01	1.298328e-01
1.980050236862034e-01	-8.839427e-01	1.955510e-01
2.051325613238362e-01	-8.559731e-01	3.220211e-01
2.193876365991034e-01	-7.829466e-01	5.786600e-01
2.393876365991030e-01	-6.484509e-01	9.377432e-01
2.593876365991026e-01	-4.768038e-01	1.287078e+00
2.793876365991022e-01	-2.681935e-01	1.617242e+00
2.993876365991017e-01	-2.724333e-02	1.919955e+00
3.193876365991013e-01	2.402231e-01	2.187896e+00
3.393876365991009e-01	5.273770e-01	2.414690e+00
3.593876365991004e-01	8.265995e-01	2.595024e+00
3.793876365991000e-01	1.129715e+00	2.724700e+00
4.003876365990990e-01	1.446309e+00	2.816948e+00
4.166666662999994e-01	1.681547e+00	2.835778e+00
4.176666662999988e-01	1.695612e+00	2.835754e+00
4.186666662999983e-01	1.709626e+00	2.835590e+00
4.189666662999976e-01	1.713814e+00	2.835500e+00
4.192666662999986e-01	1.717999e+00	2.835399e+00
4.196666662999977e-01	1.723572e+00	2.835250e+00
4.254438091571338e-01	1.802648e+00	2.829000e+00
4.312209520142698e-01	1.879040e+00	2.817984e+00
4.369980948714058e-01	1.952750e+00	2.802202e+00
4.427752377285419e-01	2.023778e+00	2.781655e+00
4.485523805856779e-01	2.092123e+00	2.756342e+00
4.543295234428140e-01	2.157786e+00	2.726263e+00
4.601066662999500e-01	2.220766e+00	2.691418e+00
4.801066662999496e-01	2.416897e+00	2.546301e+00
5.001066662999492e-01	2.569675e+00	2.351772e+00
5.201066662999487e-01	2.673797e+00	2.112430e+00
5.401066662999483e-01	2.725185e+00	1.833996e+00
5.601066662999479e-01	2.721118e+00	1.523269e+00
5.801066662999474e-01	2.660344e+00	1.188248e+00
6.001066662999470e-01	2.543195e+00	8.388056e-01
6.201066662999466e-01	2.371970e+00	4.933828e-01
6.401066662999462e-01	2.156166e+00	1.871545e-01
6.514293195258105e-01	2.016051e+00	6.660608e-02
6.592695557990762e-01	1.911884e+00	2.388699e-02
6.627255386670097e-01	1.864655e+00	1.518571e-02
6.661526240988689e-01	1.817134e+00	1.046254e-02
6.702471817494740e-01	1.759826e+00	6.747956e-03
6.748682320229165e-01	1.694609e+00	4.061000e-03
6.792482764098171e-01	1.632340e+00	2.485136e-03
6.835916879758557e-01	1.570222e+00	1.531510e-03
6.878260162432994e-01	1.509390e+00	9.567923e-04
6.921698448787517e-01	1.446778e+00	5.914496e-04
6.964670712160235e-01	1.384705e+00	3.669888e-04
7.008145299159150e-01	1.321838e+00	2.265266e-04
7.051107026874881e-01	1.259714e+00	1.405441e-04
7.094437558793061e-01	1.197121e+00	8.689486e-05
7.137458731779134e-01	1.135102e+00	5.388858e-05
7.180762634642228e-01	1.072866e+00	3.332550e-05
7.223827748433429e-01	1.011221e+00	2.065711e-05
7.267100637305930e-01	9.495857e-01	1.277783e-05
7.310177892665699e-01	8.885922e-01	7.919387e-06
7.396507704196047e-01	7.676637e-01	3.036069e-06
7.488297732495699e-01	6.414548e-01	1.115659e-06
7.542597092423673e-01	5.681823e-01	6.250961e-07
7.613242398203877e-01	4.746020e-01	2.978131e-07
7.701410964850943e-01	3.609572e-01	1.182359e-07
7.826813862050805e-01	2.063523e-01	3.191555e-08
8.015383216503764e-01	-1.316694e-02	3.735654e-10
8.143333329000004e-01	-1.541394e-01	3.654655e-11
8.173333328999988e-01	-1.850827e-01	-3.751969e-09
8.273333329000039e-01	-2.840108e-01	-1.378377e-09
8.333333329000006e-01	-3.402448e-01	-2.996217e-09
8.343333329000000e-01	-3.494020e-01	2.824175e-06
8.344333328999998e-01	-3.503119e-01	9.446694e-07
8.346333328999993e-01	-3.521301e-01	-2.965763e-09
8.353333328999994e-01	-3.584766e-01	-1.824921e-08
8.439676186142783e-01	-4.324658e-01	-8.958339e-09
8.526019043285571e-01	-5.015734e-01	-2.018521e-09
8.612361900428360e-01	-5.657994e-01	2.570245e-09
8.698704757571148e-01	-6.251437e-01	4.807961e-09
8.785047614713937e-01	-6.796064e-01	4.694626e-09
8.871390471856725e-01	-7.291874e-01	2.230239e-09
8.957733328999513e-01	-7.738868e-01	-2.585199e-09
9.157733328999509e-01	-8.587675e-01	-2.242183e-09
9.357733328999505e-01	-9.173519e-01	-1.803335e-09
9.557733328999500e-01	-9.509423e-01	-1.278618e-09
9.757733328999496e-01	-9.612424e-01	2.530489e-10
9.957733328999492e-01	-9.539579e-01	1.437708e-08
1.000260840424348e+00	-9.497064e-01	3.286151e-08
1.002512606364949e+00	-9.466576e-01	1.422826e-07
1.003912157137878e+00	-9.446596e-01	3.563277e-07
1.005133777171158e+00	-9.428469e-01	7.875694e-07
1.006204780733080e+00	-9.411998e-01	1.644037e-06
1.007327558693444e+00	-9.394175e-01	3.572868e-06
1.008373739861693e+00	-9.377069e-01	7.429587e-06
1.009453961818219e+00	-9.358900e-01	1.585205e-05
1.010497065372356e+00	-9.340874e-01	3.308202e-05
1.011559397908393e+00	-9.322031e-01	7.002533e-05
1.012602873432236e+00	-9.303052e-01	1.464847e-04
1.013657680349327e+00	-9.283391e-01	3.085645e-04
1.014704912252842e+00	-9.263397e-01	6.448983e-04
1.015763979340557e+00	-9.242691e-01	1.348500e-03
1.016831862176261e+00	-9.221295e-01	2.791118e-03
1.017934848157550e+00	-9.198605e-01	5.719602e-03
1.019105403839376e+00	-9.173765e-01	1.148896e-02
1.020449016334819e+00	-9.144021e-01	2.276052e-02
1.022288087767446e+00	-9.100695e-01	4.545055e-02
1.024871207717828e+00	-9.034664e-01	8.497658e-02
1.027661796908735e+00	-8.955513e-01	1.317385e-01
1.031551139020635e+00	-8.827927e-01	1.993067e-01
1.039312318016879e+00	-8.511801e-01	3.372252e-01
1.054834676009367e+00	-7.686081e-01	6.168200e-01
1.074834676009367e+00	-6.294097e-01	9.752551e-01
1.094834676009366e+00	-4.528090e-01	1.322950e+00
1.114834676009366e+00	-2.398328e-01	1.650621e+00
1.134834676009365e+00	4.763638e-03	1.950034e+00
1.154834676009365e+00	2.750442e-01	2.213912e+00
1.174834676009365e+00	5.640911e-01	2.436027e+00
1.194834676009364e+00	8.642245e-01	2.611185e+00
1.214834676009364e+00	1.167565e+00	2.737252e+00
1.232999999599999e+00	1.441342e+00	2.815256e+00
1.235571428171427e+00	1.479281e+00	2.820854e+00
1.238142856742856e+00	1.516942e+00	2.825562e+00
1.240714285314285e+00	1.554326e+00	2.829380e+00
1.243285713885713e+00	1.591433e+00	2.832309e+00
1.245857142457142e+00	1.628262e+00	2.834347e+00
1.248428571028571e+00	1.664813e+00	2.835496e+00
1.250999999599999e+00	1.701087e+00	2.835754e+00
1.251999999599999e+00	1.715086e+00	2.835591e+00
1.252099999599999e+00	1.716481e+00	2.835562e+00
1.252299999599998e+00	1.719271e+00	2.835500e+00
1.252599999599999e+00	1.723450e+00	2.835398e+00
1.252999999599998e+00	1.729018e+00	2.835250e+00
1.258777142457134e+00	1.808002e+00	2.829000e+00
1.264554285314270e+00	1.884298e+00	2.817984e+00
1.270331428171406e+00	1.957904e+00	2.802202e+00
1.276108571028542e+00	2.028821e+00	2.781655e+00
1.281885713885679e+00	2.097050e+00	2.756342e+00
1.287662856742815e+00	2.162590e+00	2.726263e+00
1.293439999599951e+00	2.225441e+00	2.691418e+00
1.313439999599950e+00	2.421105e+00	2.546301e+00
1.333439999599950e+00	2.573373e+00	2.351772e+00
1.353439999599949e+00	2.676955e+00	2.112430e+00
1.373439999599949e+00	2.727789e+00	1.833996e+00
1.393439999599948e+00	2.723167e+00	1.523269e+00
1.413439999599948e+00	2.661848e+00	1.188248e+00
1.433439999599948e+00	2.544174e+00	8.388056e-01
1.453439999599947e+00	2.372456e+00	4.933828e-01
1.473439999599947e+00	2.156189e+00	1.871543e-01
1.484762598002538e+00	2.015831e+00	6.660647e-02
1.492602903563256e+00	1.911504e+00	2.388700e-02
1.496058893217464e+00	1.864208e+00	1.518567e-02
1.499485956510920e+00	1.816622e+00	1.046254e-02
1.503580511863120e+00	1.759238e+00	6.747960e-03
1.508201560447114e+00	1.693938e+00	4.061004e-03
1.512581610827255e+00	1.631592e+00	2.485137e-03
1.516925020007482e+00	1.569402e+00	1.531510e-03
1.521159349819387e+00	1.508500e+00	9.567926e-04
1.525503176241125e+00	1.445820e+00	5.914499e-04
1.529800404178207e+00	1.383681e+00	3.669889e-04
1.534147861760053e+00	1.320751e+00	2.265267e-04
1.538444035492608e+00	1.258567e+00	1.405442e-04
1.542777088007700e+00	1.195915e+00	8.689490e-05
1.547079205601728e+00	1.133842e+00	5.388861e-05
1.551409596010508e+00	1.071552e+00	3.332551e-05
1.555716106689573e+00	1.009856e+00	2.065712e-05
1.560043397165867e+00	9.481733e-01	1.277783e-05
1.564351119798138e+00	8.871343e-01	7.919391e-06
1.572984097681653e+00	7.661222e-01	3.036072e-06
1.582164398733303e+00	6.398180e-01	1.115543e-06
1.587596231235489e+00	5.664798e-01	6.249116e-07
1.594663683298219e+00	4.728153e-01	2.976392e-07
1.603485090463575e+00	3.590665e-01	1.181129e-07
1.616033334399708e+00	2.043231e-01	3.185490e-08
1.634906828749056e+00	-1.542114e-02	3.512637e-10
1.647666666200001e+00	-1.560127e-01	3.857384e-11
1.650666666199999e+00	-1.869555e-01	-3.754243e-09
1.660666666200004e+00	-2.858765e-01	-1.376331e-09
1.666666666200001e+00	-3.421015e-01	-2.996387e-09
1.667666666200001e+00	-3.512569e-01	2.828279e-06
1.667766666200000e+00	-3.521666e-01	9.460450e-07
1.667966666200000e+00	-3.539844e-01	-2.965865e-09
1.668666666200000e+00	-3.603295e-01	-1.827148e-08
1.677300951914279e+00	-4.342955e-01	-8.967068e-09
1.685935237628558e+00	-5.033747e-01	-2.017162e-09
1.694569523342837e+00	-5.675670e-01	2.578240e-09
1.703203809057115e+00	-6.268725e-01	4.819137e-09
1.711838094771394e+00	-6.812911e-01	4.705530e-09
1.720472380485673e+00	-7.308228e-01	2.237418e-09
1.729106666199952e+00	-7.754677e-01	-2.585199e-09
1.749106666199951e+00	-8.602102e-01	-2.242184e-09
1.769106666199951e+00	-9.186393e-01	-1.803335e-09
1.789106666199951e+00	-9.520622e-01	-1.278618e-09
1.809106666199950e+00	-9.621875e-01	2.530489e-10
1.829106666199950e+00	-9.531760e-01	1.495126e-06
1.839842741878515e+00	-9.407664e-01	5.103882e-05
1.845368346105227e+00	-9.318333e-01	3.628639e-04
1.848343119112331e+00	-9.263265e-01	1.353754e-03
1.850255123919220e+00	-9.225387e-01	3.568215e-03
1.851622283035466e+00	-9.197042e-01	7.691790e-03
1.853064593828668e+00	-9.165872e-01	1.639740e-02
1.854516954813297e+00	-9.132706e-01	3.115544e-02
1.856949299001188e+00	-9.072521e-01	6.537283e-02
1.860249438934048e+00	-8.982567e-01	1.190837e-01
1.863302331159279e+00	-8.887916e-01	1.715715e-01
1.869035487579346e+00	-8.674592e-01	2.726684e-01
1.880501800419482e+00	-8.125753e-01	4.784478e-01
1.900501800419482e+00	-6.868948e-01	8.386219e-01
1.920501800419482e+00	-5.250695e-01	1.191622e+00
1.940501800419481e+00	-3.254088e-01	1.527982e+00
1.960501800419481e+00	-9.217161e-02	1.839099e+00
1.980501800419480e+00	1.691351e-01	2.117382e+00
2.000501800419480e+00	4.519456e-01	2.356178e+00
2.020501800419479e+00	7.488453e-01	2.549881e+00
2.040501800419479e+00	1.051800e+00	2.693974e+00
2.060501800419479e+00	1.354665e+00	2.795639e+00
2.075996397861042e+00	1.583035e+00	2.831903e+00
2.084333332900000e+00	1.701604e+00	2.835754e+00
2.085333332899999e+00	1.715604e+00	2.835591e+00
2.085433332899999e+00	1.717000e+00	2.835562e+00
2.085633332899999e+00	1.719789e+00	2.835501e+00
2.086333332899999e+00	1.729537e+00	2.835250e+00
2.092110475757135e+00	1.808524e+00	2.829000e+00
2.097887618614271e+00	1.884821e+00	2.817984e+00
2.103664761471407e+00	1.958428e+00	2.802202e+00
2.109441904328543e+00	2.029346e+00	2.781655e+00
2.115219047185679e+00	2.097573e+00	2.756342e+00
2.120996190042815e+00	2.163111e+00	2.726263e+00
2.126773332899951e+00	2.225959e+00	2.691418e+00
2.146773332899951e+00	2.421608e+00	2.546301e+00
2.166773332899950e+00	2.573851e+00	2.351772e+00
2.186773332899950e+00	2.677402e+00	2.112430e+00
2.206773332899949e+00	2.728198e+00	1.833996e+00
2.226773332899949e+00	2.723532e+00	1.523269e+00
2.246773332899949e+00	2.662166e+00	1.188248e+00
2.266773332899948e+00	2.544443e+00	8.388056e-01
2.286773332899948e+00	2.372675e+00	4.933828e-01
2.306773332899947e+00	2.156359e+00	1.871543e-01
2.318095938999502e+00	2.015973e+00	6.660642e-02
2.325936234166699e+00	1.911627e+00	2.388700e-02
2.329392222871313e+00	1.864322e+00	1.518568e-02
2.332819289467215e+00	1.816728e+00	1.046254e-02
2.336913845219335e+00	1.759335e+00	6.747960e-03
2.341534894005560e+00	1.694023e+00	4.061004e-03
2.345914943521004e+00	1.631668e+00	2.485137e-03
2.350258353023809e+00	1.569467e+00	1.531510e-03
2.354492682639675e+00	1.508557e+00	9.567926e-04
2.358836509354264e+00	1.445867e+00	5.914499e-04
2.363133737099533e+00	1.383719e+00	3.669889e-04
2.367481194782211e+00	1.320780e+00	2.265267e-04
2.371777368465025e+00	1.258587e+00	1.405442e-04
2.376110420936349e+00	1.195927e+00	8.689490e-05
2.380412538710351e+00	1.133844e+00	5.388860e-05
2.384742928740542e+00	1.071546e+00	3.332551e-05
2.389049440094809e+00	1.009842e+00	2.065712e-05
2.393376729408965e+00	9.481510e-01	1.277783e-05
2.397684453951046e+00	8.871043e-01	7.919391e-06
2.406317433756753e+00	7.660771e-01	3.036070e-06
2.415496961039901e+00	6.397682e-01	1.115612e-06
2.420927663225916e+00	5.664366e-01	6.250217e-07
2.427993374142075e+00	4.727838e-01	2.977429e-07
2.436812069213516e+00	3.590556e-01	1.181862e-07
2.449355572241286e+00	2.043484e-01	3.189103e-08
2.468219196579749e+00	-1.531104e-02	3.645054e-10
2.480999999500002e+00	-1.561515e-01	3.739290e-11
2.483999999499995e+00	-1.870969e-01	-3.752840e-09
2.493999999500017e+00	-2.860251e-01	-1.377581e-09
2.499999999500004e+00	-3.422538e-01	-2.996330e-09
2.500999999500001e+00	-3.514098e-01	2.825841e-06
2.501099999500001e+00	-3.523196e-01	9.452279e-07
2.501299999500000e+00	-3.541375e-01	-2.965804e-09
2.501999999499999e+00	-3.604830e-01	-1.825822e-08
2.510634285214278e+00	-4.344532e-01	-8.961871e-09
2.519268570928557e+00	-5.035357e-01	-2.017971e-09
2.527902856642835e+00	-5.677307e-01	2.573480e-09
2.536537142357114e+00	-6.270381e-01	4.812483e-09
2.545171428071393e+00	-6.814579e-01	4.699038e-09
2.553805713785672e+00	-7.309902e-01	2.233144e-09
2.562439999499951e+00	-7.756349e-01	-2.585199e-09
2.582439999499950e+00	-8.603746e-01	-2.242184e-09
2.602439999499950e+00	-9.187976e-01	-1.803335e-09
2.622439999499949e+00	-9.522118e-01	-1.278618e-09
2.642439999499949e+00	-9.623259e-01	2.530490e-10
2.662439999499949e+00	-9.533017e-01	1.495126e-06
2.673176075178128e+00	-9.408846e-01	5.103882e-05
2.678701679399538e+00	-9.319475e-01	3.628639e-04
2.681676452404931e+00	-9.264385e-01	1.353754e-03
2.683588457210076e+00	-9.226493e-01	3.568215e-03
2.684955616321776e+00	-9.198138e-01	7.691790e-03
2.686397927111660e+00	-9.166957e-01	1.639740e-02
2.687850288082684e+00	-9.133779e-01	3.115544e-02
2.690282632202090e+00	-9.073576e-01	6.537283e-02
2.693582772271267e+00	-8.983596e-01	1.190837e-01
2.696635664410087e+00	-8.888922e-01	1.715715e-01
2.702368820846180e+00	-8.675553e-01	2.726684e-01
2.713835133718367e+00	-8.126622e-01	4.784478e-01
2.733835133718367e+00	-6.869658e-01	8.386219e-01
2.753835133718367e+00	-5.251245e-01	1.191622e+00
2.773835133718366e+00	-3.254483e-01	1.527982e+00
2.793835133718366e+00	-9.219620e-02	1.839099e+00
2.813835133718365e+00	1.691245e-01	2.117382e+00
2.833835133718365e+00	4.519478e-01	2.356178e+00
2.853835133718365e+00	7.488591e-01	2.549881e+00
2.873835133718364e+00	1.051824e+00	2.693974e+00
2.893835133718364e+00	1.354698e+00	2.795639e+00
2.909329731163268e+00	1.583073e+00	2.831903e+00
2.917666666199999e+00	1.701645e+00	2.835754e+00
2.918666666199998e+00	1.715646e+00	2.835591e+00
2.918766666199998e+00	1.717041e+00	2.835562e+00
2.918966666199998e+00	1.719830e+00	2.835501e+00
2.919666666199998e+00	1.729579e+00	2.835250e+00
2.925443809057134e+00	1.808567e+00	2.829000e+00
2.931220951914270e+00	1.884866e+00	2.817984e+00
2.936998094771406e+00	1.958475e+00	2.802202e+00
2.942775237628542e+00	2.029393e+00	2.781655e+00
2.948552380485678e+00	2.097622e+00	2.756342e+00
2.954329523342814e+00	2.163160e+00	2.726263e+00
2.960106666199950e+00	2.226009e+00	2.691418e+00
2.980106666199950e+00	2.421661e+00	2.546301e+00
3.000106666199949e+00	2.573905e+00	2.351772e+00
3.020106666199949e+00	2.677455e+00	2.112430e+00
3.040106666199948e+00	2.728249e+00	1.833996e+00
3.060106666199948e+00	2.723582e+00	1.523269e+00
3.080106666199947e+00	2.662213e+00	1.188248e+00
3.100106666199947e+00	2.544486e+00	8.388056e-01
3.120106666199947e+00	2.372713e+00	4.933828e-01
3.140106666199946e+00	2.156392e+00	1.871543e-01
3.151429272304179e+00	2.016003e+00	6.660642e-02
3.159269567471993e+00	1.911655e+00	2.388700e-02
3.162725556187130e+00	1.864350e+00	1.518568e-02
3.166152622780865e+00	1.816755e+00	1.046254e-02
3.170247178535471e+00	1.759360e+00	6.747960e-03
3.174868227317640e+00	1.694048e+00	4.061004e-03
3.179248276835583e+00	1.631691e+00	2.485137e-03
3.183591686336529e+00	1.569490e+00	1.531510e-03
3.187826015954229e+00	1.508578e+00	9.567926e-04
3.192169842667274e+00	1.445887e+00	5.914499e-04
3.196467070413748e+00	1.383738e+00	3.669889e-04
3.200814528095368e+00	1.320798e+00	2.265267e-04
3.205110701779070e+00	1.258603e+00	1.405442e-04
3.209443754249655e+00	1.195942e+00	8.689490e-05
3.213745872024276e+00	1.133859e+00	5.388860e-05
3.218076262053939e+00	1.071559e+00	3.332551e-05
3.222382773408647e+00	1.009855e+00	2.065712e-05
3.226710062722427e+00	9.481625e-01	1.277783e-05
3.231017787264829e+00	8.871147e-01	7.919391e-06
3.239650767070513e+00	7.660854e-01	3.036070e-06
3.248830294346639e+00	6.397745e-01	1.115612e-06
3.254260996522515e+00	5.664416e-01	6.250217e-07
3.261326707423107e+00	4.727873e-01	2.977429e-07
3.270145402470320e+00	3.590572e-01	1.181862e-07
3.282688905455919e+00	2.043475e-01	3.189103e-08
3.301552529706139e+00	-1.531541e-02	3.645055e-10
3.314333332800000e+00	-1.561581e-01	3.739290e-11
3.317333332799999e+00	-1.871040e-01	-3.752954e-09
3.327333332800004e+00	-2.860337e-01	-1.377581e-09
3.333333332800001e+00	-3.422633e-01	-2.996330e-09
3.334333332800000e+00	-3.514194e-01	2.825841e-06
3.334433332800000e+00	-3.523291e-01	9.452279e-07
3.334633332799999e+00	-3.541471e-01	-2.965804e-09
3.335333332799999e+00	-3.604927e-01	-1.825822e-08
3.343967618514278e+00	-4.344639e-01	-8.961870e-09
3.352601904228557e+00	-5.035475e-01	-2.017971e-09
3.361236189942836e+00	-5.677434e-01	2.573480e-09
3.369870475657115e+00	-6.270516e-01	4.812483e-09
3.378504761371393e+00	-6.814722e-01	4.699037e-09
3.387139047085673e+00	-7.310051e-01	2.233143e-09
3.395773332799951e+00	-7.756503e-01	-2.585199e-09
3.415773332799951e+00	-8.603910e-01	-2.242183e-09
3.435773332799950e+00	-9.188147e-01	-1.803335e-09
3.455773332799950e+00	-9.522290e-01	-1.278618e-09
3.475773332799950e+00	-9.623429e-01	2.530490e-10
3.495773332799949e+00	-9.533181e-01	1.495126e-06
3.506509408478191e+00	-9.409006e-01	5.103882e-05
3.512035012700970e+00	-9.319632e-01	3.628639e-04
3.515009785706715e+00	-9.264541e-01	1.353754e-03
3.516921790511628e+00	-9.226648e-01	3.568215e-03
3.518288949620160e+00	-9.198292e-01	7.691790e-03
3.519731260407896e+00	-9.167111e-01	1.639740e-02
3.521183621368836e+00	-9.133932e-01	3.115544e-02
3.523615965437640e+00	-9.073727e-01	6.537282e-02
3.526916105607574e+00	-8.983746e-01	1.190837e-01
3.529968997682611e+00	-8.889070e-01	1.715715e-01
3.535702154130561e+00	-8.675697e-01	2.726684e-01
3.547168467026463e+00	-8.126760e-01	4.784478e-01
3.567168467026463e+00	-6.869781e-01	8.386219e-01
