time	V(y)	V(triangle)
0.000000000000000e+00	3.794367e-02	4.000000e-03
9.999999999976694e-05	3.768218e-02	3.600000e-03
2.999999999993008e-04	3.715913e-02	2.800000e-03
5.999999999986017e-04	3.637428e-02	1.600000e-03
9.999999999976694e-04	3.532749e-02	1.563194e-13
1.003492210106316e-03	3.531835e-02	1.396884e-05
1.010476630327162e-03	3.530006e-02	4.190652e-05
1.024445470765301e-03	3.526349e-02	9.778189e-05
1.046662505054030e-03	3.520532e-02	1.866500e-04
1.071783482245792e-03	3.513955e-02	2.871339e-04
1.100261949638082e-03	3.506500e-02	4.010478e-04
1.130506352442495e-03	3.498585e-02	5.220254e-04
1.174098745629237e-03	3.487183e-02	6.963950e-04
1.224425256047823e-03	3.474031e-02	8.977010e-04
1.277205376297275e-03	3.460253e-02	1.108821e-03
1.332650437326777e-03	3.445792e-02	1.330602e-03
1.395589286538268e-03	3.429386e-02	1.582357e-03
1.459731952230925e-03	3.412670e-02	1.838928e-03
1.523968213476223e-03	3.395931e-02	2.095873e-03
1.582679686851662e-03	3.380635e-02	2.330719e-03
1.646367677928140e-03	3.364056e-02	2.585471e-03
1.709651710168458e-03	3.347600e-02	2.838607e-03
1.776803472850474e-03	3.330161e-02	3.107214e-03
1.856131568885644e-03	3.309577e-02	3.424526e-03
1.929953743601942e-03	3.290429e-02	3.719815e-03
1.933014356374940e-03	3.289635e-02	3.732058e-03
1.939135581920937e-03	3.288048e-02	3.756542e-03
1.951378033012929e-03	3.284872e-02	3.805512e-03
1.975862935196915e-03	3.278521e-02	3.903452e-03
1.999999999998892e-03	3.272260e-02	4.000000e-03
2.002413706478023e-03	3.271635e-02	4.009655e-03
2.007241119439840e-03	3.270382e-02	4.028964e-03
2.016895945363473e-03	3.267878e-02	4.067584e-03
2.036205597207186e-03	3.262872e-02	4.144822e-03
2.074824900894612e-03	3.252862e-02	4.299300e-03
2.129869072675206e-03	3.238607e-02	4.519476e-03
2.193177153746007e-03	3.222232e-02	4.772709e-03
2.285293571578251e-03	3.198432e-02	5.141174e-03
2.357466643172046e-03	3.179797e-02	5.429867e-03
2.430179042413272e-03	3.161028e-02	5.720716e-03
2.501156241500269e-03	3.142710e-02	6.004625e-03
2.570477213968303e-03	3.124833e-02	6.281909e-03
2.641059253715383e-03	3.106652e-02	6.564237e-03
2.707082408672790e-03	3.089667e-02	6.828330e-03
2.780535289783614e-03	3.070789e-02	7.122141e-03
2.846472603451389e-03	3.053849e-02	7.385890e-03
2.911952216095415e-03	3.037029e-02	7.647809e-03
2.995818345432610e-03	3.015493e-02	7.983274e-03
3.065719959007396e-03	2.997560e-02	8.262880e-03
3.135584419066362e-03	2.979659e-02	8.542337e-03
3.207209305891467e-03	2.961331e-02	8.828837e-03
3.277338862218926e-03	2.943398e-02	9.109356e-03
3.347900150384220e-03	2.925360e-02	9.391600e-03
3.414173055514169e-03	2.908421e-02	9.656692e-03
3.487556913803758e-03	2.889673e-02	9.950228e-03
3.553601770267534e-03	2.872818e-02	1.021441e-02
3.619174427495153e-03	2.856106e-02	1.047670e-02
3.703875400717038e-03	2.834543e-02	1.081550e-02
3.773983490479083e-03	2.816706e-02	1.109593e-02
3.844027774480452e-03	2.798889e-02	1.137611e-02
3.916563332985845e-03	2.780443e-02	1.166625e-02
3.987528688480069e-03	2.762410e-02	1.195011e-02
4.057892103883631e-03	2.744552e-02	1.223157e-02
4.124766459845830e-03	2.727602e-02	1.249907e-02
4.197602478125617e-03	2.709157e-02	1.279041e-02
4.263627191654962e-03	2.692444e-02	1.305451e-02
4.329151365347172e-03	2.675861e-02	1.331661e-02
4.417357404804534e-03	2.653546e-02	1.366943e-02
4.488001861979285e-03	2.635692e-02	1.395201e-02
4.558528878700230e-03	2.617892e-02	1.423412e-02
4.634359459465998e-03	2.598777e-02	1.453744e-02
4.704964218827712e-03	2.580991e-02	1.481986e-02
4.774684684544894e-03	2.563433e-02	1.509874e-02
4.842789190163899e-03	2.546285e-02	1.537116e-02
4.914319383505728e-03	2.528285e-02	1.565728e-02
4.980350076881024e-03	2.511688e-02	1.592140e-02
5.045871180232808e-03	2.495241e-02	1.618348e-02
5.127063624861705e-03	2.474883e-02	1.650826e-02
5.195676851322162e-03	2.457688e-02	1.678271e-02
5.264048810399657e-03	2.440557e-02	1.705620e-02
5.341099708640940e-03	2.421257e-02	1.736440e-02
5.411602617559907e-03	2.403612e-02	1.764641e-02
5.481599375499968e-03	2.386117e-02	1.792640e-02
5.549817216177644e-03	2.369089e-02	1.819927e-02
5.621433561767475e-03	2.351228e-02	1.848573e-02
5.694924356614450e-03	2.332906e-02	1.877970e-02
5.761125097993869e-03	2.316404e-02	1.904450e-02
5.839720210079946e-03	2.296823e-02	1.935888e-02
5.907612561532716e-03	2.279925e-02	1.963045e-02
5.975057862499966e-03	2.263162e-02	1.990023e-02
6.056036787047248e-03	2.243060e-02	2.022415e-02
6.126374888292929e-03	2.225611e-02	2.050550e-02
6.196470870150961e-03	2.208227e-02	2.078588e-02
6.267392101133140e-03	2.190642e-02	2.106957e-02
6.339008121358347e-03	2.172898e-02	2.135603e-02
6.410751802416570e-03	2.155144e-02	2.164301e-02
6.477651942180529e-03	2.138611e-02	2.191061e-02
6.552328879610769e-03	2.120176e-02	2.220931e-02
6.619227441479580e-03	2.103668e-02	2.247691e-02
6.685611250535572e-03	2.087290e-02	2.274244e-02
6.771561984322716e-03	2.066093e-02	2.308625e-02
6.842392660491470e-03	2.048643e-02	2.336957e-02
6.913048334396876e-03	2.031261e-02	2.365219e-02
6.987842700620917e-03	2.012884e-02	2.395137e-02
7.059815479024678e-03	1.995213e-02	2.423926e-02
7.130285913710566e-03	1.977916e-02	2.452114e-02
7.198678900909528e-03	1.961133e-02	2.479472e-02
7.271148956554896e-03	1.943360e-02	2.508460e-02
7.337770149295153e-03	1.927041e-02	2.535108e-02
7.403851233121372e-03	1.910877e-02	2.561541e-02
7.486262568004776e-03	1.890741e-02	2.594505e-02
7.555586775971790e-03	1.873811e-02	2.622235e-02
7.624627158616448e-03	1.856956e-02	2.649851e-02
7.703159351315492e-03	1.837789e-02	2.681264e-02
7.774044831929672e-03	1.820505e-02	2.709618e-02
7.844384922695014e-03	1.803377e-02	2.737754e-02
7.914324579331833e-03	1.786370e-02	2.765730e-02
7.986323831527642e-03	1.768877e-02	2.794529e-02
8.059208822370323e-03	1.751175e-02	2.823684e-02
8.126207661742768e-03	1.734906e-02	2.850483e-02
8.202434207987608e-03	1.716406e-02	2.880974e-02
8.270045367137158e-03	1.700015e-02	2.908018e-02
8.337127740539074e-03	1.683776e-02	2.934851e-02
8.422233311339511e-03	1.663199e-02	2.968893e-02
8.493298192266963e-03	1.646028e-02	2.997319e-02
8.564120079633142e-03	1.628921e-02	3.025648e-02
8.638935864190955e-03	1.610855e-02	3.055574e-02
8.711619073409338e-03	1.593319e-02	3.084648e-02
8.782506794879907e-03	1.576239e-02	3.113003e-02
8.851338823145483e-03	1.559678e-02	3.140536e-02
8.924207100989179e-03	1.542162e-02	3.169683e-02
8.991240630685127e-03	1.526055e-02	3.196496e-02
9.057717895760931e-03	1.510084e-02	3.223087e-02
9.139449940818167e-03	1.490459e-02	3.255780e-02
9.208838633824712e-03	1.473816e-02	3.283535e-02
9.277893237776169e-03	1.457277e-02	3.311157e-02
9.357705330916843e-03	1.438186e-02	3.343082e-02
9.428873517123293e-03	1.421176e-02	3.371549e-02
9.499519924695221e-03	1.404294e-02	3.399808e-02
9.570853252668599e-03	1.387253e-02	3.428341e-02
9.643293426442767e-03	1.369962e-02	3.457318e-02
9.715874409184977e-03	1.352660e-02	3.486350e-02
9.783580580482010e-03	1.336543e-02	3.513432e-02
9.858878632329038e-03	1.318637e-02	3.543552e-02
9.926507861877099e-03	1.302563e-02	3.570603e-02
9.993564853360226e-03	1.286628e-02	3.597426e-02
1.008323245796916e-02	1.265332e-02	3.633293e-02
1.015514913815352e-02	1.248270e-02	3.662060e-02
1.022678503780128e-02	1.231301e-02	3.690714e-02
1.030644367760658e-02	1.212457e-02	3.722578e-02
1.037784095105465e-02	1.195578e-02	3.751136e-02
1.044841868164070e-02	1.178899e-02	3.779367e-02
1.052107814318148e-02	1.161733e-02	3.808431e-02
1.059388685458984e-02	1.144546e-02	3.837555e-02
1.066616803472442e-02	1.127506e-02	3.866467e-02
1.073444727650852e-02	1.111433e-02	3.893779e-02
1.080910297294224e-02	1.093878e-02	3.923641e-02
1.087675829462498e-02	1.077976e-02	3.950703e-02
1.094382257895532e-02	1.062217e-02	3.977529e-02
1.103803285581861e-02	1.040091e-02	4.015213e-02
1.111084230081261e-02	1.023012e-02	4.044337e-02
1.118335913580992e-02	1.006029e-02	4.073344e-02
1.126829040133970e-02	9.861641e-03	4.107316e-02
1.133971799339406e-02	9.694686e-03	4.135887e-02
1.141046065349016e-02	9.529382e-03	4.164184e-02
1.148974826823945e-02	9.344189e-03	4.195899e-02
1.156162156499718e-02	9.176482e-03	4.224649e-02
1.163262705396306e-02	9.011040e-03	4.253051e-02
1.170462688646623e-02	8.843516e-03	4.281851e-02
1.177762546806704e-02	8.673823e-03	4.311050e-02
1.185054912437167e-02	8.504367e-03	4.340219e-02
1.191887677862624e-02	8.345633e-03	4.367551e-02
1.199429711632760e-02	8.170535e-03	4.397719e-02
1.206234714355503e-02	8.012738e-03	4.424939e-02
1.212978973320133e-02	7.856593e-03	4.451916e-02
1.222317589228084e-02	7.640655e-03	4.489270e-02
1.229606176070419e-02	7.472229e-03	4.518425e-02
1.236862506112502e-02	7.304607e-03	4.547450e-02
1.245323786949015e-02	7.109254e-03	4.581295e-02
1.252494434742601e-02	6.943885e-03	4.609978e-02
1.259592433099144e-02	6.780447e-03	4.638370e-02
1.267497844332510e-02	6.598664e-03	4.669992e-02
1.274725354039674e-02	6.432601e-03	4.698901e-02
1.281853122968002e-02	6.268883e-03	4.727412e-02
1.289063151656578e-02	6.103332e-03	4.756252e-02
1.296393895396619e-02	5.935152e-03	4.785576e-02
1.303719638319123e-02	5.767318e-03	4.814878e-02
1.310581721015325e-02	5.610344e-03	4.842327e-02
1.318148713257017e-02	5.437434e-03	4.872595e-02
1.324981330829544e-02	5.281382e-03	4.899925e-02
1.331751404488557e-02	5.126806e-03	4.927006e-02
1.341238216695828e-02	4.910333e-03	4.964953e-02
1.348575248112027e-02	4.743124e-03	4.994301e-02
1.355878064998706e-02	4.576970e-03	5.023512e-02
1.364570742316218e-02	4.379456e-03	5.058283e-02
1.371779305416254e-02	4.215777e-03	5.087117e-02
1.378915283488169e-02	4.053801e-03	5.115661e-02
1.387177821733232e-02	3.866348e-03	5.148711e-02
1.394389946453245e-02	3.702906e-03	5.177560e-02
1.401525983214569e-02	3.541439e-03	5.206104e-02
1.409131590051160e-02	3.369593e-03	5.236526e-02
1.416557934304308e-02	3.201943e-03	5.266232e-02
1.423759138287650e-02	3.039434e-03	5.295037e-02
1.430807640025478e-02	2.880425e-03	5.323230e-02
1.438198495598897e-02	2.713829e-03	5.352794e-02
1.445720230230307e-02	2.544516e-03	5.382881e-02
1.452571382240109e-02	2.390538e-03	5.410286e-02
1.460353684142390e-02	2.215839e-03	5.441415e-02
1.467267528138905e-02	2.060721e-03	5.469070e-02
1.474115535649645e-02	1.907129e-03	5.496462e-02
1.483239537730441e-02	1.702612e-03	5.532958e-02
1.490544241978498e-02	1.539077e-03	5.562177e-02
1.497806940369983e-02	1.376752e-03	5.591228e-02
1.506171641886667e-02	1.190055e-03	5.624687e-02
1.513404668143536e-02	1.028739e-03	5.653619e-02
1.520554027796805e-02	8.693445e-04	5.682216e-02
1.528379516387446e-02	6.949563e-04	5.713518e-02
1.535721957098346e-02	5.315020e-04	5.742888e-02
1.542917779670461e-02	3.715564e-04	5.771671e-02
1.550128417056840e-02	2.115218e-04	5.800514e-02
1.557525004071891e-02	4.752249e-05	5.830100e-02
1.564938190154663e-02	-1.167741e-04	5.859753e-02
1.571855871684846e-02	-2.700394e-04	5.887423e-02
1.579499227432635e-02	-4.392608e-04	5.917997e-02
1.586399943919758e-02	-5.918422e-04	5.945600e-02
1.593234131938814e-02	-7.427072e-04	5.972936e-02
1.601940650343536e-02	-9.346536e-04	6.007763e-02
1.609139896184786e-02	-1.093261e-03	6.036559e-02
1.616293256144274e-02	-1.250798e-03	6.065173e-02
1.624750040099698e-02	-1.436936e-03	6.099000e-02
1.632014524573222e-02	-1.596643e-03	6.128058e-02
1.639204130470517e-02	-1.754444e-03	6.156817e-02
1.647079914407712e-02	-1.927055e-03	6.188320e-02
1.654439738702251e-02	-2.088217e-03	6.217759e-02
1.661652869834995e-02	-2.246107e-03	6.246611e-02
1.668947403654286e-02	-2.405715e-03	6.275789e-02
1.676378658386568e-02	-2.568163e-03	6.305514e-02
1.683782489061159e-02	-2.729774e-03	6.335130e-02
1.690752986774768e-02	-2.881683e-03	6.363012e-02
1.698368770889402e-02	-3.047465e-03	6.393475e-02
1.705288456602716e-02	-3.198014e-03	6.421154e-02
1.712140898745673e-02	-3.347052e-03	6.448564e-02
1.720598989749789e-02	-3.530893e-03	6.482396e-02
1.727747489417197e-02	-3.686071e-03	6.510990e-02
1.734845790647910e-02	-3.839899e-03	6.539384e-02
1.743407389228935e-02	-4.025176e-03	6.573629e-02
1.750704417872129e-02	-4.182962e-03	6.602818e-02
1.757931018503456e-02	-4.339164e-03	6.631724e-02
1.765903874396813e-02	-4.511406e-03	6.663615e-02
1.773269630342966e-02	-4.670356e-03	6.693079e-02
1.780497840342221e-02	-4.826087e-03	6.721991e-02
1.787918485394258e-02	-4.985717e-03	6.751674e-02
1.795391379427969e-02	-5.146312e-03	6.781565e-02
1.802766944756584e-02	-5.304745e-03	6.811067e-02
1.809809584141320e-02	-5.455970e-03	6.839238e-02
1.817383030543951e-02	-5.618460e-03	6.869532e-02
1.824327358494671e-02	-5.767244e-03	6.897309e-02
1.831205606698916e-02	-5.914370e-03	6.924822e-02
1.839371069796414e-02	-6.088802e-03	6.957484e-02
1.846453684571259e-02	-6.240001e-03	6.985815e-02
1.853481500466003e-02	-6.389972e-03	7.013926e-02
1.862243183959222e-02	-6.576828e-03	7.048973e-02
1.869583675175690e-02	-6.733176e-03	7.078335e-02
1.876860720206608e-02	-6.887905e-03	7.107443e-02
1.885024645381606e-02	-7.061233e-03	7.140099e-02
1.892380561731244e-02	-7.217270e-03	7.169522e-02
1.899618145096937e-02	-7.370735e-03	7.198472e-02
1.907277063907742e-02	-7.533053e-03	7.229108e-02
1.914831426236674e-02	-7.692984e-03	7.259326e-02
1.922151939777450e-02	-7.847717e-03	7.288608e-02
1.929335263051257e-02	-7.999306e-03	7.317341e-02
1.936844689455697e-02	-8.157602e-03	7.347379e-02
1.944429292968053e-02	-8.317402e-03	7.377717e-02
1.951424589123008e-02	-8.464728e-03	7.405698e-02
1.959211736123478e-02	-8.628603e-03	7.436847e-02
1.966220989177714e-02	-8.775901e-03	7.464884e-02
1.973156792927355e-02	-8.921405e-03	7.492627e-02
1.981796998239460e-02	-9.102417e-03	7.527188e-02
1.989041356298671e-02	-9.254075e-03	7.556166e-02
1.996229722149323e-02	-9.404493e-03	7.584919e-02
2.005001124356198e-02	-9.587917e-03	7.620005e-02
2.012369813032677e-02	-9.741805e-03	7.649479e-02
2.019660895021858e-02	-9.893801e-03	7.678644e-02
2.028001744301378e-02	-1.006742e-02	7.712007e-02
2.035377660276083e-02	-1.022082e-02	7.741511e-02
2.042644056996679e-02	-1.037187e-02	7.770576e-02
2.050527615520537e-02	-1.053567e-02	7.802110e-02
2.058046395648461e-02	-1.069170e-02	7.832186e-02
2.065356156985843e-02	-1.084315e-02	7.861425e-02
2.072769434125732e-02	-1.099649e-02	7.891078e-02
2.080313160729119e-02	-1.115236e-02	7.921252e-02
2.087788179842676e-02	-1.130674e-02	7.951153e-02
2.094889031265623e-02	-1.145332e-02	7.979556e-02
2.102550639223111e-02	-1.161135e-02	8.010203e-02
2.109573792455066e-02	-1.175599e-02	8.038295e-02
2.116527390072420e-02	-1.189895e-02	8.066110e-02
2.124674016015859e-02	-1.206621e-02	8.098696e-02
2.131800513731719e-02	-1.221243e-02	8.127202e-02
2.138864772285842e-02	-1.235731e-02	8.155459e-02
2.147939511132790e-02	-1.254328e-02	8.191758e-02
2.155374931025023e-02	-1.269545e-02	8.221500e-02
2.162744776958903e-02	-1.284599e-02	8.250979e-02
2.171375709879442e-02	-1.302203e-02	8.285503e-02
2.178777085200423e-02	-1.317286e-02	8.315108e-02
2.186077068162362e-02	-1.332156e-02	8.344308e-02
2.194401843243909e-02	-1.349102e-02	8.377607e-02
2.201830573877217e-02	-1.364205e-02	8.407322e-02
2.209137141697681e-02	-1.379033e-02	8.436549e-02
2.217027942239014e-02	-1.395021e-02	8.468112e-02
2.224615015892439e-02	-1.410378e-02	8.498460e-02
2.231963044033947e-02	-1.425244e-02	8.527852e-02
2.239435538413659e-02	-1.440354e-02	8.557742e-02
2.247029359659081e-02	-1.455693e-02	8.588117e-02
2.254530920768261e-02	-1.470821e-02	8.618124e-02
2.261692457172160e-02	-1.485238e-02	8.646770e-02
2.269371212787163e-02	-1.500677e-02	8.677485e-02
2.276440971576577e-02	-1.514884e-02	8.705764e-02
2.283441497687022e-02	-1.528945e-02	8.733766e-02
2.291483470548172e-02	-1.545086e-02	8.765934e-02
2.298610359900621e-02	-1.559369e-02	8.794441e-02
2.305669930011334e-02	-1.573492e-02	8.822680e-02
2.315050429606202e-02	-1.592229e-02	8.860201e-02
2.322564731227672e-02	-1.607225e-02	8.890259e-02
2.330016838301319e-02	-1.622090e-02	8.920068e-02
2.339086157349257e-02	-1.640165e-02	8.956344e-02
2.346554880924145e-02	-1.655029e-02	8.986220e-02
2.353930668270721e-02	-1.669680e-02	9.015723e-02
2.363008411811762e-02	-1.687683e-02	9.052034e-02
2.370485134641953e-02	-1.702498e-02	9.081940e-02
2.377872228868583e-02	-1.717128e-02	9.111489e-02
2.386876918656355e-02	-1.734947e-02	9.147508e-02
2.394352227500463e-02	-1.749719e-02	9.177409e-02
2.401734051137439e-02	-1.764277e-02	9.206937e-02
2.410638344148452e-02	-1.781810e-02	9.242553e-02
2.418111201895456e-02	-1.796512e-02	9.272445e-02
2.425486168873547e-02	-1.811014e-02	9.301945e-02
2.434233004623465e-02	-1.828200e-02	9.336932e-02
2.441705535847305e-02	-1.842861e-02	9.366822e-02
2.449072224686688e-02	-1.857287e-02	9.396289e-02
2.457585883900393e-02	-1.873932e-02	9.430344e-02
2.465069160237832e-02	-1.888549e-02	9.460276e-02
2.472430015102134e-02	-1.902919e-02	9.489720e-02
2.480628441630728e-02	-1.918913e-02	9.522514e-02
2.488173672423599e-02	-1.933614e-02	9.552695e-02
2.495548890801658e-02	-1.947957e-02	9.582195e-02
2.503379776540626e-02	-1.963161e-02	9.613519e-02
2.511114094724221e-02	-1.978160e-02	9.644456e-02
2.518547426389617e-02	-1.992568e-02	9.674190e-02
2.526046961933659e-02	-2.007096e-02	9.704188e-02
2.533718545044650e-02	-2.021940e-02	9.734874e-02
2.541306450403624e-02	-2.036597e-02	9.765226e-02
2.548540713216596e-02	-2.050545e-02	9.794163e-02
2.556291736858185e-02	-2.065471e-02	9.825167e-02
2.564198289810449e-02	-2.080686e-02	9.856793e-02
2.571350884689849e-02	-2.094443e-02	9.885404e-02
2.579343864925931e-02	-2.109802e-02	9.917375e-02
2.586531980188767e-02	-2.123592e-02	9.946128e-02
2.593634025969394e-02	-2.137192e-02	9.974536e-02
2.602083686001677e-02	-2.153347e-02	1.000834e-01
2.609380886723400e-02	-2.167288e-02	1.003752e-01
2.616605364738689e-02	-2.181083e-02	1.006642e-01
2.626063508759913e-02	-2.199126e-02	1.010425e-01
2.633653066527941e-02	-2.213582e-02	1.013461e-01
2.641168357419588e-02	-2.227867e-02	1.016467e-01
2.650623342200120e-02	-2.245810e-02	1.020249e-01
2.658215332650826e-02	-2.260205e-02	1.023286e-01
2.665716551616626e-02	-2.274418e-02	1.026287e-01
2.675605233370604e-02	-2.293137e-02	1.030242e-01
2.683287761598407e-02	-2.307654e-02	1.033315e-01
2.690891075281954e-02	-2.321993e-02	1.036356e-01
2.699371813070073e-02	-2.337962e-02	1.039749e-01
2.706707651580587e-02	-2.351764e-02	1.042683e-01
2.713943679032127e-02	-2.365371e-02	1.045577e-01
2.722568992417251e-02	-2.381575e-02	1.049028e-01
2.729938733622106e-02	-2.395399e-02	1.051975e-01
2.737227885040383e-02	-2.409044e-02	1.054891e-01
2.746919120425773e-02	-2.427156e-02	1.058768e-01
2.754573994292286e-02	-2.441449e-02	1.061830e-01
2.762155179744141e-02	-2.455594e-02	1.064862e-01
2.772137235207950e-02	-2.474200e-02	1.068855e-01
2.779862680504053e-02	-2.488575e-02	1.071945e-01
2.787506857284328e-02	-2.502768e-02	1.075003e-01
2.795870386310995e-02	-2.518274e-02	1.078348e-01
2.803196748212144e-02	-2.531846e-02	1.081279e-01
2.810420950062920e-02	-2.545222e-02	1.084168e-01
2.818909651284685e-02	-2.560924e-02	1.087564e-01
2.826258146663818e-02	-2.574494e-02	1.090503e-01
2.833525046621688e-02	-2.587887e-02	1.093410e-01
2.843348004940793e-02	-2.605960e-02	1.097339e-01
2.851049498086766e-02	-2.620117e-02	1.100420e-01
2.858679922482210e-02	-2.634133e-02	1.103472e-01
2.867559848647261e-02	-2.650429e-02	1.107024e-01
2.875035824926186e-02	-2.664125e-02	1.110014e-01
2.882409285465215e-02	-2.677605e-02	1.112964e-01
2.891185198321011e-02	-2.693624e-02	1.116474e-01
2.898630005165970e-02	-2.707200e-02	1.119452e-01
2.905985646761167e-02	-2.720606e-02	1.122394e-01
2.915966412883009e-02	-2.738777e-02	1.126387e-01
2.923717363308143e-02	-2.752863e-02	1.129487e-01
2.931395273477122e-02	-2.766786e-02	1.132558e-01
2.940017303298248e-02	-2.782396e-02	1.136007e-01
2.947439211078162e-02	-2.795823e-02	1.138976e-01
2.954755520276464e-02	-2.809050e-02	1.141902e-01
2.963361892068761e-02	-2.824594e-02	1.145345e-01
2.970771746700152e-02	-2.837954e-02	1.148309e-01
2.978094068160075e-02	-2.851129e-02	1.151238e-01
2.988123723227787e-02	-2.869144e-02	1.155249e-01
2.995900357006676e-02	-2.883099e-02	1.158360e-01
3.003605967460032e-02	-2.896917e-02	1.161442e-01
3.012243620300481e-02	-2.912389e-02	1.164897e-01
3.019685374114189e-02	-2.925697e-02	1.167874e-01
3.027019407014109e-02	-2.938784e-02	1.170808e-01
