time	V(y)	V(triangle)
0.000000000000000e+00	3.575360e-01	9.600008e-03
9.999999999976694e-05	3.560557e-01	8.640008e-03
2.999999999993008e-04	3.530955e-01	6.720008e-03
6.000000000003780e-04	3.486568e-01	3.840008e-03
6.574425614430826e-04	3.478072e-01	2.349167e-03
7.148851228857873e-04	3.469576e-01	1.173375e-03
7.723276843284919e-04	3.461080e-01	3.126303e-04
8.297702457711967e-04	3.452583e-01	-2.330661e-04
8.872128072139013e-04	3.444087e-01	-4.637146e-04
9.446553686566059e-04	3.435590e-01	-3.793151e-04
1.002097930099310e-03	3.427093e-01	2.013245e-05
1.004195124181706e-03	3.426783e-01	4.026551e-05
1.008389512348273e-03	3.426163e-01	8.053164e-05
1.016778288679632e-03	3.424923e-01	1.610639e-04
1.033555841344125e-03	3.422442e-01	3.221284e-04
1.059421264280047e-03	3.418618e-01	5.704365e-04
1.086553599977336e-03	3.414607e-01	8.309069e-04
1.116832386555799e-03	3.410131e-01	1.121583e-03
1.151762292323610e-03	3.404969e-01	1.456910e-03
1.197373122607814e-03	3.398231e-01	1.894774e-03
1.244364621285854e-03	3.391293e-01	2.345893e-03
1.298451506222875e-03	3.383311e-01	2.865127e-03
1.354003851078645e-03	3.375117e-01	3.398429e-03
1.399217452634716e-03	3.368449e-01	3.832480e-03
1.444869030535756e-03	3.361718e-01	4.270735e-03
1.487590391322513e-03	3.355419e-01	4.680860e-03
1.538871663129271e-03	3.347859e-01	5.173160e-03
1.587292838788557e-03	3.340723e-01	5.638003e-03
1.636841734519834e-03	3.333423e-01	6.113673e-03
1.684380785903272e-03	3.326422e-01	6.570048e-03
1.734715809051934e-03	3.319014e-01	7.053264e-03
1.789990895851190e-03	3.310883e-01	7.583905e-03
1.836193543795162e-03	3.304088e-01	8.027450e-03
1.878767893613187e-03	3.297828e-01	8.436164e-03
1.921256611350231e-03	3.291581e-01	8.844056e-03
1.952635822899396e-03	3.286968e-01	9.145296e-03
1.999999999998892e-03	3.280005e-01	9.599992e-03
2.014209253127675e-03	3.277917e-01	9.736401e-03
2.033154923967828e-03	3.275132e-01	9.918280e-03
2.071046265648135e-03	3.269565e-01	1.028204e-02
2.116059121153313e-03	3.262955e-01	1.071416e-02
2.168679073021096e-03	3.255231e-01	1.121931e-02
2.236564379353823e-03	3.245272e-01	1.187101e-02
2.286098352071164e-03	3.238008e-01	1.234654e-02
2.328938476248155e-03	3.231727e-01	1.275780e-02
2.371644251120131e-03	3.225466e-01	1.316778e-02
2.418068882393598e-03	3.218661e-01	1.361345e-02
2.466994436483461e-03	3.211490e-01	1.408314e-02
2.512263160841854e-03	3.204857e-01	1.451772e-02
2.562103575435515e-03	3.197557e-01	1.499619e-02
2.609391054368970e-03	3.190635e-01	1.545015e-02
2.669945532446150e-03	3.181776e-01	1.603147e-02
2.718631233568303e-03	3.174657e-01	1.649885e-02
2.762166687599432e-03	3.168292e-01	1.691679e-02
2.805894014294097e-03	3.161899e-01	1.733658e-02
2.849698042533433e-03	3.155496e-01	1.775709e-02
2.911891204474770e-03	3.146406e-01	1.835415e-02
2.960505085383147e-03	3.139303e-01	1.882084e-02
3.007688757749705e-03	3.132412e-01	1.927380e-02
3.054780035347093e-03	3.125539e-01	1.972588e-02
3.108241109263332e-03	3.117739e-01	2.023911e-02
3.156853325172904e-03	3.110650e-01	2.070578e-02
3.201151856652373e-03	3.104192e-01	2.113105e-02
3.246051773732717e-03	3.097647e-01	2.156209e-02
3.289105680545745e-03	3.091372e-01	2.197541e-02
3.345081028133023e-03	3.083214e-01	2.251277e-02
3.393015194948390e-03	3.076229e-01	2.297294e-02
3.445705525225051e-03	3.068555e-01	2.347877e-02
3.493439761030004e-03	3.061607e-01	2.393701e-02
3.544287528669088e-03	3.054209e-01	2.442515e-02
3.597415087716271e-03	3.046483e-01	2.493518e-02
3.643411960155163e-03	3.039796e-01	2.537675e-02
3.690772429017386e-03	3.032913e-01	2.583141e-02
3.733620988763064e-03	3.026685e-01	2.624275e-02
3.782404812531226e-03	3.019596e-01	2.671108e-02
3.830251430297693e-03	3.012645e-01	2.717041e-02
3.876149921110184e-03	3.005978e-01	2.761103e-02
3.925326116505090e-03	2.998839e-01	2.808312e-02
3.973212462621944e-03	2.991891e-01	2.854283e-02
4.038300602941192e-03	2.982452e-01	2.916768e-02
4.087761024868186e-03	2.975282e-01	2.964250e-02
4.131116533473644e-03	2.968999e-01	3.005871e-02
4.174497171939962e-03	2.962713e-01	3.047517e-02
4.219452542340463e-03	2.956199e-01	3.090674e-02
4.272843845511076e-03	2.948464e-01	3.141929e-02
4.319362476390864e-03	2.941727e-01	3.186587e-02
4.370687627149650e-03	2.934296e-01	3.235859e-02
4.417972974538387e-03	2.927455e-01	3.281253e-02
4.475269447873131e-03	2.919170e-01	3.336258e-02
4.523998351722014e-03	2.912126e-01	3.383038e-02
4.568037490731314e-03	2.905762e-01	3.425315e-02
4.612421255696830e-03	2.899350e-01	3.467924e-02
4.655982741937237e-03	2.893056e-01	3.509743e-02
4.720795690017709e-03	2.883694e-01	3.571963e-02
4.770356761738981e-03	2.876537e-01	3.619542e-02
4.817909327174519e-03	2.869673e-01	3.665192e-02
4.865394279869761e-03	2.862823e-01	3.710778e-02
4.918272684104608e-03	2.855198e-01	3.761541e-02
4.967361934534509e-03	2.848124e-01	3.808667e-02
5.012018367899884e-03	2.841690e-01	3.851537e-02
5.057376307982864e-03	2.835155e-01	3.895080e-02
5.100560408470400e-03	2.828935e-01	3.936537e-02
5.155447432981575e-03	2.821030e-01	3.989229e-02
5.203373666686772e-03	2.814128e-01	4.035238e-02
5.251267051757935e-03	2.807235e-01	4.081216e-02
5.299452566385199e-03	2.800303e-01	4.127474e-02
5.349117824948735e-03	2.793161e-01	4.175152e-02
5.408273073522096e-03	2.784660e-01	4.231941e-02
5.455970538717381e-03	2.777808e-01	4.277731e-02
5.499020683267020e-03	2.771624e-01	4.319059e-02
5.541990627536464e-03	2.765453e-01	4.360310e-02
5.588975184670275e-03	2.758706e-01	4.405415e-02
5.638473429829816e-03	2.751599e-01	4.452934e-02
5.684282060164136e-03	2.745024e-01	4.496910e-02
5.734586265354835e-03	2.737808e-01	4.545202e-02
5.782319170734240e-03	2.730964e-01	4.591026e-02
5.844264436218438e-03	2.722086e-01	4.650493e-02
5.893416455400313e-03	2.715046e-01	4.697679e-02
5.937171859685009e-03	2.708780e-01	4.739684e-02
5.981062069274401e-03	2.702495e-01	4.781819e-02
6.025526939717807e-03	2.696129e-01	4.824505e-02
6.083551244991270e-03	2.687823e-01	4.880209e-02
6.131424699223231e-03	2.680972e-01	4.926167e-02
6.183985840600315e-03	2.673453e-01	4.976626e-02
6.231522491020769e-03	2.666658e-01	5.022261e-02
6.289048817892606e-03	2.658438e-01	5.077486e-02
6.337960682284205e-03	2.651453e-01	5.124442e-02
6.382143614869662e-03	2.645145e-01	5.166857e-02
6.426646490677257e-03	2.638792e-01	5.209580e-02
6.470480329081596e-03	2.632535e-01	5.251660e-02
6.537322020447434e-03	2.622995e-01	5.315828e-02
6.587356490106444e-03	2.615857e-01	5.363861e-02
6.635133092743217e-03	2.609043e-01	5.409727e-02
6.682781638508217e-03	2.602252e-01	5.455470e-02
6.737496091485440e-03	2.594458e-01	5.507996e-02
6.786432530073938e-03	2.587491e-01	5.554974e-02
6.830931454496536e-03	2.581156e-01	5.597693e-02
6.875928664753062e-03	2.574752e-01	5.640891e-02
6.919513947464040e-03	2.568550e-01	5.682733e-02
6.979836574691589e-03	2.559967e-01	5.740642e-02
7.028852775231798e-03	2.552994e-01	5.787698e-02
7.076804963030980e-03	2.546176e-01	5.833732e-02
7.124784198184742e-03	2.539358e-01	5.879792e-02
7.176357769068886e-03	2.532033e-01	5.929303e-02
7.227391949585993e-03	2.524788e-01	5.978296e-02
7.273005118182851e-03	2.518315e-01	6.022084e-02
7.319722336484702e-03	2.511686e-01	6.066933e-02
7.362994388298461e-03	2.505547e-01	6.108474e-02
7.414323003526846e-03	2.498266e-01	6.157749e-02
7.462396649318137e-03	2.491447e-01	6.203900e-02
7.509685596692961e-03	2.484743e-01	6.249297e-02
7.558730962445637e-03	2.477793e-01	6.296381e-02
7.607757833163475e-03	2.470850e-01	6.343447e-02
7.681678902455857e-03	2.460387e-01	6.414411e-02
7.732676250320480e-03	2.453172e-01	6.463368e-02
7.776062616846602e-03	2.447035e-01	6.505019e-02
7.819192466103075e-03	2.440935e-01	6.546424e-02
7.869738141089044e-03	2.433787e-01	6.594948e-02
7.917659334809812e-03	2.427012e-01	6.640952e-02
7.965126303160375e-03	2.420303e-01	6.686521e-02
8.014171134218984e-03	2.413375e-01	6.733604e-02
8.063307866770231e-03	2.406438e-01	6.780775e-02
8.137478292770339e-03	2.395973e-01	6.851979e-02
8.188545298398964e-03	2.388770e-01	6.901003e-02
8.231974714249191e-03	2.382647e-01	6.942695e-02
8.275138326698794e-03	2.376561e-01	6.984132e-02
8.326130646020502e-03	2.369372e-01	7.033084e-02
8.374077989280693e-03	2.362615e-01	7.079114e-02
8.421763071483568e-03	2.355896e-01	7.124892e-02
8.470771125310250e-03	2.348995e-01	7.171939e-02
8.520104364599490e-03	2.342052e-01	7.219300e-02
8.587744686140653e-03	2.332538e-01	7.284234e-02
8.637598322003726e-03	2.325529e-01	7.332093e-02
8.681056967295930e-03	2.319420e-01	7.373814e-02
8.724356284037782e-03	2.313334e-01	7.415381e-02
8.772336012349058e-03	2.306592e-01	7.461442e-02
8.820783013335998e-03	2.299784e-01	7.507951e-02
8.867567333894044e-03	2.293213e-01	7.552864e-02
8.917451667175058e-03	2.286210e-01	7.600753e-02
8.966037171319385e-03	2.279393e-01	7.647395e-02
9.032680408836313e-03	2.270049e-01	7.711373e-02
9.082811381057709e-03	2.263022e-01	7.759498e-02
9.126609959281495e-03	2.256885e-01	7.801545e-02
9.170374111176827e-03	2.250753e-01	7.843558e-02
9.216496621185399e-03	2.244291e-01	7.887836e-02
9.268311480916225e-03	2.237034e-01	7.937578e-02
9.314656696439272e-03	2.230544e-01	7.982070e-02
9.366333247943004e-03	2.223312e-01	8.031679e-02
9.414354109754441e-03	2.216595e-01	8.077779e-02
9.475905073214719e-03	2.207991e-01	8.136868e-02
9.525413521522808e-03	2.201074e-01	8.184396e-02
9.569597502359528e-03	2.194902e-01	8.226813e-02
9.613927755379947e-03	2.188710e-01	8.269370e-02
9.658780948514689e-03	2.182446e-01	8.312429e-02
9.717173704215654e-03	2.174293e-01	8.368486e-02
9.765394773411984e-03	2.167562e-01	8.414778e-02
9.813416707293854e-03	2.160862e-01	8.460879e-02
9.861321121233502e-03	2.154183e-01	8.506867e-02
9.917248990815253e-03	2.146389e-01	8.560558e-02
9.966635077692132e-03	2.139510e-01	8.607969e-02
1.001140649428223e-02	2.133275e-01	8.650950e-02
1.005661947571213e-02	2.126980e-01	8.694354e-02
1.010065846691965e-02	2.120850e-01	8.736631e-02
1.016436496252737e-02	2.111983e-01	8.797789e-02
1.021420732300093e-02	2.105047e-01	8.845638e-02
1.026248042748001e-02	2.098334e-01	8.891980e-02
1.031069029444431e-02	2.091632e-01	8.938262e-02
1.036423823804533e-02	2.084194e-01	8.989668e-02
1.041407795905869e-02	2.077273e-01	9.037514e-02
1.045929597296791e-02	2.070997e-01	9.080923e-02
1.050520079591166e-02	2.064626e-01	9.124992e-02
1.054901208892645e-02	2.058546e-01	9.167051e-02
1.060666110301156e-02	2.050548e-01	9.222394e-02
1.065553071377678e-02	2.043769e-01	9.269309e-02
1.070405678996167e-02	2.037041e-01	9.315894e-02
1.075266260730778e-02	2.030306e-01	9.362555e-02
1.080401464582437e-02	2.023194e-01	9.411854e-02
1.085734076680289e-02	2.015813e-01	9.463046e-02
1.090390472253233e-02	2.009370e-01	9.507748e-02
1.095177659343882e-02	2.002748e-01	9.553704e-02
1.099540521938280e-02	1.996713e-01	9.595589e-02
1.104696596311072e-02	1.989582e-01	9.645087e-02
1.109544880750413e-02	1.982878e-01	9.691630e-02
1.114350313052093e-02	1.976236e-01	9.737762e-02
1.119294745322996e-02	1.969406e-01	9.785229e-02
1.124264397353869e-02	1.962545e-01	9.832937e-02
1.130986937993406e-02	1.953269e-01	9.897474e-02
1.135984729261175e-02	1.946376e-01	9.945453e-02
1.140358930114971e-02	1.940345e-01	9.987445e-02
1.144716342898455e-02	1.934337e-01	1.002928e-01
1.149613519146087e-02	1.927586e-01	1.007629e-01
1.154478375238455e-02	1.920881e-01	1.012299e-01
1.159234775685825e-02	1.914328e-01	1.016865e-01
1.164232329611892e-02	1.907447e-01	1.021663e-01
1.169155053672988e-02	1.900672e-01	1.026389e-01
1.176211812919981e-02	1.890967e-01	1.033163e-01
1.181303115741805e-02	1.883968e-01	1.038051e-01
1.185696310132123e-02	1.877930e-01	1.042268e-01
1.190072859809810e-02	1.871916e-01	1.046470e-01
1.194874482936292e-02	1.865318e-01	1.051079e-01
1.199761322498460e-02	1.858605e-01	1.055771e-01
1.204502948668384e-02	1.852094e-01	1.060323e-01
1.209530147531268e-02	1.845194e-01	1.065149e-01
1.214440411047413e-02	1.838459e-01	1.069863e-01
1.221296457079113e-02	1.829060e-01	1.076445e-01
1.226364906770172e-02	1.822115e-01	1.081310e-01
1.230770933248593e-02	1.816080e-01	1.085540e-01
1.235166523012232e-02	1.810059e-01	1.089760e-01
1.239894079395043e-02	1.803585e-01	1.094298e-01
1.244913975499706e-02	1.796712e-01	1.099117e-01
1.249632069772666e-02	1.790254e-01	1.103647e-01
1.254733903601135e-02	1.783275e-01	1.108544e-01
1.259617675077962e-02	1.776598e-01	1.113233e-01
1.266211697685904e-02	1.767588e-01	1.119563e-01
1.271248014917248e-02	1.760710e-01	1.124398e-01
1.275671557608682e-02	1.754670e-01	1.128645e-01
1.280093203016186e-02	1.748634e-01	1.132889e-01
1.284738411683328e-02	1.742293e-01	1.137349e-01
1.289976849415453e-02	1.735144e-01	1.142378e-01
1.294667324501120e-02	1.728746e-01	1.146881e-01
1.299884192651390e-02	1.721632e-01	1.151889e-01
1.304738943115780e-02	1.715017e-01	1.156549e-01
1.311071951384157e-02	1.706392e-01	1.162629e-01
1.316076232636298e-02	1.699581e-01	1.167433e-01
1.320520648574508e-02	1.693532e-01	1.171700e-01
1.324972492165521e-02	1.687475e-01	1.175973e-01
1.329547832453848e-02	1.681251e-01	1.180366e-01
1.335050578324903e-02	1.673766e-01	1.185648e-01
1.339812334140156e-02	1.667292e-01	1.190220e-01
1.345155146070454e-02	1.660031e-01	1.195349e-01
1.350006924560354e-02	1.653441e-01	1.200007e-01
1.356187246341456e-02	1.645053e-01	1.205940e-01
1.361187672742403e-02	1.638269e-01	1.210740e-01
1.365648514439854e-02	1.632219e-01	1.215023e-01
1.370122003857155e-02	1.626152e-01	1.219317e-01
1.374670266541855e-02	1.619986e-01	1.223683e-01
1.380353956886893e-02	1.612281e-01	1.229140e-01
1.385169060742975e-02	1.605756e-01	1.233762e-01
1.390026637807296e-02	1.599176e-01	1.238426e-01
1.394870323895603e-02	1.592620e-01	1.243075e-01
1.400648471521926e-02	1.584803e-01	1.248622e-01
1.405639699971317e-02	1.578054e-01	1.253414e-01
1.410144164467120e-02	1.571965e-01	1.257738e-01
1.414681511708160e-02	1.565832e-01	1.262094e-01
1.419158620607774e-02	1.559782e-01	1.266392e-01
1.426248182414902e-02	1.550204e-01	1.273198e-01
1.431379467475757e-02	1.543275e-01	1.278124e-01
1.436269112338096e-02	1.536675e-01	1.282818e-01
1.441128760396282e-02	1.530120e-01	1.287484e-01
1.447351902684879e-02	1.521730e-01	1.293458e-01
1.452353842489806e-02	1.514990e-01	1.298260e-01
1.456814053172373e-02	1.508982e-01	1.302541e-01
1.461282905453132e-02	1.502963e-01	1.306832e-01
1.465868801829018e-02	1.496787e-01	1.311234e-01
1.471410077569502e-02	1.489327e-01	1.316554e-01
1.476192780578778e-02	1.482890e-01	1.321145e-01
1.481562262199354e-02	1.475666e-01	1.326300e-01
1.486432677509875e-02	1.469119e-01	1.330975e-01
1.492670075026048e-02	1.460739e-01	1.336963e-01
1.497687571991335e-02	1.454001e-01	1.341780e-01
1.502158677357102e-02	1.447999e-01	1.346072e-01
1.506640053980313e-02	1.441983e-01	1.350374e-01
1.511220350235831e-02	1.435836e-01	1.354771e-01
1.516805705424140e-02	1.428342e-01	1.360133e-01
1.521604578509184e-02	1.421905e-01	1.364740e-01
1.526996707361583e-02	1.414677e-01	1.369917e-01
1.531873213055235e-02	1.408143e-01	1.374598e-01
1.538117042249532e-02	1.399784e-01	1.380592e-01
1.543140097759910e-02	1.393061e-01	1.385414e-01
1.547615634388677e-02	1.387074e-01	1.389711e-01
1.552101062634570e-02	1.381074e-01	1.394017e-01
1.556689727260796e-02	1.374937e-01	1.398422e-01
1.562264180737927e-02	1.367483e-01	1.403774e-01
1.567062960190135e-02	1.361069e-01	1.408380e-01
1.572453314573075e-02	1.353867e-01	1.413555e-01
1.577336230708681e-02	1.347348e-01	1.418243e-01
1.583610094335874e-02	1.338977e-01	1.424266e-01
1.588639360028843e-02	1.332270e-01	1.429094e-01
1.593117646658548e-02	1.326299e-01	1.433393e-01
1.597604674028830e-02	1.320318e-01	1.437700e-01
1.602206831008601e-02	1.314185e-01	1.442118e-01
1.607748982867641e-02	1.306800e-01	1.447439e-01
1.612541233793507e-02	1.300416e-01	1.452039e-01
1.617920217522339e-02	1.293255e-01	1.457203e-01
1.622809810987391e-02	1.286750e-01	1.461897e-01
1.629124313417485e-02	1.278354e-01	1.467959e-01
1.634160814882080e-02	1.271661e-01	1.472794e-01
1.638641252653450e-02	1.265708e-01	1.477095e-01
1.643128939158167e-02	1.259747e-01	1.481404e-01
1.647747302046554e-02	1.253613e-01	1.485837e-01
1.653248135841423e-02	1.246309e-01	1.491118e-01
1.658031037766605e-02	1.239960e-01	1.495710e-01
1.663394500533144e-02	1.232845e-01	1.500859e-01
1.668291127702304e-02	1.226353e-01	1.505559e-01
1.674653312987573e-02	1.217923e-01	1.511667e-01
1.679698336948476e-02	1.211242e-01	1.516510e-01
1.684180698157256e-02	1.205308e-01	1.520813e-01
1.688668592523790e-02	1.199367e-01	1.525122e-01
1.693305337304807e-02	1.193231e-01	1.529573e-01
1.698759296959018e-02	1.186014e-01	1.534809e-01
1.703530975647993e-02	1.179703e-01	1.539390e-01
1.708876264679127e-02	1.172636e-01	1.544521e-01
1.713780396061004e-02	1.166157e-01	1.549229e-01
1.720197065701967e-02	1.157686e-01	1.555389e-01
1.725252178502856e-02	1.151015e-01	1.560242e-01
1.729736306493557e-02	1.145099e-01	1.564547e-01
1.734224040254162e-02	1.139180e-01	1.568855e-01
1.738881576405049e-02	1.133037e-01	1.573326e-01
1.744283703356864e-02	1.125915e-01	1.578512e-01
1.749042896502040e-02	1.119642e-01	1.583081e-01
1.754367539806800e-02	1.112628e-01	1.588193e-01
1.759279880553066e-02	1.106161e-01	1.592909e-01
1.765759398842093e-02	1.097637e-01	1.599129e-01
1.770826493630295e-02	1.090974e-01	1.603993e-01
1.775312230165405e-02	1.085078e-01	1.608300e-01
1.779799384466685e-02	1.079180e-01	1.612607e-01
1.784480857608450e-02	1.073028e-01	1.617102e-01
1.789825189795913e-02	1.066007e-01	1.622232e-01
1.794601731674739e-02	1.059734e-01	1.626818e-01
1.799899409509820e-02	1.052780e-01	1.631903e-01
1.804827073051385e-02	1.046316e-01	1.636634e-01
1.811395316314446e-02	1.037706e-01	1.642939e-01
1.816478009381584e-02	1.031047e-01	1.647819e-01
1.820964050275897e-02	1.025171e-01	1.652125e-01
1.825448246430739e-02	1.019298e-01	1.656430e-01
1.830166669586397e-02	1.013120e-01	1.660960e-01
1.835425536098789e-02	1.006236e-01	1.666008e-01
1.840224324722151e-02	9.999562e-02	1.670615e-01
1.845481050449038e-02	9.930813e-02	1.675662e-01
1.850429738873949e-02	9.866135e-02	1.680412e-01
1.857132461923605e-02	9.778588e-02	1.686847e-01
1.862239171321711e-02	9.711920e-02	1.691750e-01
1.866723861443020e-02	9.653390e-02	1.696055e-01
1.871201935716371e-02	9.594957e-02	1.700354e-01
1.875975383807038e-02	9.532679e-02	1.704936e-01
1.881114475022727e-02	9.465647e-02	1.709870e-01
1.885943049554228e-02	9.402692e-02	1.714505e-01
1.891141624160397e-02	9.334949e-02	1.719496e-01
1.896121094027947e-02	9.270106e-02	1.724276e-01
1.903039390155037e-02	9.180073e-02	1.730918e-01
1.908179431903179e-02	9.113214e-02	1.735852e-01
1.912660646884667e-02	9.054943e-02	1.740154e-01
1.917127996854440e-02	8.996862e-02	1.744443e-01
1.921995742451621e-02	8.933585e-02	1.749116e-01
1.926985646935186e-02	8.868738e-02	1.753906e-01
1.931864358012980e-02	8.805361e-02	1.758590e-01
1.936984061306468e-02	8.738893e-02	1.763505e-01
1.942016094811727e-02	8.673607e-02	1.768335e-01
1.949364708098500e-02	8.578327e-02	1.775390e-01
1.954566863814478e-02	8.510910e-02	1.780384e-01
1.959042541464484e-02	8.452925e-02	1.784681e-01
1.963490705848514e-02	8.395306e-02	1.788951e-01
1.968838700116038e-02	8.326044e-02	1.794085e-01
1.973768758973193e-02	8.262214e-02	1.798818e-01
1.978763537496420e-02	8.197576e-02	1.803613e-01
1.983774174685315e-02	8.132771e-02	1.808423e-01
1.988968314294581e-02	8.065638e-02	1.813409e-01
1.994739142943303e-02	7.991094e-02	1.818949e-01
1.999576145481008e-02	7.928640e-02	1.823593e-01
2.004039529594692e-02	7.871025e-02	1.827878e-01
2.008490654159800e-02	7.813578e-02	1.832151e-01
2.013682384448323e-02	7.746585e-02	1.837135e-01
2.018641679620181e-02	7.682609e-02	1.841896e-01
2.023623397277596e-02	7.618372e-02	1.846678e-01
2.028680969365126e-02	7.553197e-02	1.851534e-01
2.033815100164560e-02	7.487080e-02	1.856462e-01
2.040126646817697e-02	7.405849e-02	1.862521e-01
2.045100031853586e-02	7.341869e-02	1.867296e-01
2.049570519413635e-02	7.284375e-02	1.871588e-01
2.054024090433515e-02	7.227109e-02	1.875863e-01
2.059257054363606e-02	7.159832e-02	1.880887e-01
2.064212793137621e-02	7.096139e-02	1.885644e-01
2.069216458262879e-02	7.031859e-02	1.890448e-01
2.074267004880248e-02	6.967016e-02	1.895296e-01
2.079429099373975e-02	6.900785e-02	1.900252e-01
2.085555329361632e-02	6.822232e-02	1.906133e-01
